date Sun Apr 14 04:35:32.621 pm 2024
base hex  timestamps absolute
internal events logged
// version 8.5.0
Begin Triggerblock Sun Apr 14 04:35:32.621 pm 2024
   0.000000 Start of measurement
   0.000000 1  390             Rx   d 8 04 00 00 00 00 80 21 C7   Length = 0 BitCount = 0 ID = 912
   0.000196 1  393             Rx   d 8 00 10 00 00 20 00 00 02   Length = 0 BitCount = 0 ID = 915
   0.042050 1  55b             Rx   d 8 A4 40 AA 00 DF C0 10 95   Length = 0 BitCount = 0 ID = 1371
   0.042259 1  59e             Rx   d 8 00 00 0C 76 18 00 00 00   Length = 0 BitCount = 0 ID = 1438
   0.042500 1  5bc             Rx   d 8 3D 80 F0 64 B0 01 00 32   Length = 0 BitCount = 0 ID = 1468
   0.142111 1  55b             Rx   d 8 A4 40 AA 00 DF C0 11 10   Length = 0 BitCount = 0 ID = 1371
   0.142287 1  59e             Rx   d 8 00 00 0C 76 18 00 00 00   Length = 0 BitCount = 0 ID = 1438
   0.142512 1  5bc             Rx   d 8 3D 80 F0 64 B0 01 00 32   Length = 0 BitCount = 0 ID = 1468
   0.242181 1  55b             Rx   d 8 A4 40 AA 00 DF C0 12 1A   Length = 0 BitCount = 0 ID = 1371
   0.242341 1  59e             Rx   d 8 00 00 0C 76 18 00 00 00   Length = 0 BitCount = 0 ID = 1438
   0.242572 1  5bc             Rx   d 8 3D 80 F0 64 B0 01 00 32   Length = 0 BitCount = 0 ID = 1468
   0.342121 1  55b             Rx   d 8 A4 40 AA 00 DF C0 13 9F   Length = 0 BitCount = 0 ID = 1371
   0.342317 1  59e             Rx   d 8 00 00 0C 76 18 00 00 00   Length = 0 BitCount = 0 ID = 1438
   0.342564 1  5bc             Rx   d 8 3D 80 F0 64 B0 01 00 32   Length = 0 BitCount = 0 ID = 1468
   0.442132 1  55b             Rx   d 8 A4 40 AA 00 DF C0 10 95   Length = 0 BitCount = 0 ID = 1371
   0.442320 1  59e             Rx   d 8 00 00 0C 76 18 00 00 00   Length = 0 BitCount = 0 ID = 1438
   0.442576 1  5bc             Rx   d 8 3D 80 F0 64 B0 01 00 32   Length = 0 BitCount = 0 ID = 1468
   0.542138 1  55b             Rx   d 8 A4 40 AA 00 DF C0 11 10   Length = 0 BitCount = 0 ID = 1371
   0.542357 1  59e             Rx   d 8 00 00 0C 76 18 00 00 00   Length = 0 BitCount = 0 ID = 1438
   0.542596 1  5bc             Rx   d 8 3D 80 F0 64 B0 01 00 32   Length = 0 BitCount = 0 ID = 1468
   0.642136 1  55b             Rx   d 8 A4 40 AA 00 DF C0 12 1A   Length = 0 BitCount = 0 ID = 1371
   0.642352 1  59e             Rx   d 8 00 00 0C 76 18 00 00 00   Length = 0 BitCount = 0 ID = 1438
   0.642587 1  5bc             Rx   d 8 3D 80 F0 64 B0 01 00 32   Length = 0 BitCount = 0 ID = 1468
   0.742164 1  55b             Rx   d 8 A4 40 AA 00 DF C0 13 9F   Length = 0 BitCount = 0 ID = 1371
   0.742322 1  59e             Rx   d 8 00 00 0C 76 18 00 00 00   Length = 0 BitCount = 0 ID = 1438
   0.742606 1  5bc             Rx   d 8 3D 80 F0 64 B0 01 00 32   Length = 0 BitCount = 0 ID = 1468
   0.842178 1  55b             Rx   d 8 A4 40 AA 00 DF C0 10 95   Length = 0 BitCount = 0 ID = 1371
   0.842341 1  59e             Rx   d 8 00 00 0C 76 18 00 00 00   Length = 0 BitCount = 0 ID = 1438
   0.842639 1  5bc             Rx   d 8 3D 80 F0 64 B0 01 00 32   Length = 0 BitCount = 0 ID = 1468
   0.942088 1  55b             Rx   d 8 A4 40 AA 00 DF C0 11 10   Length = 0 BitCount = 0 ID = 1371
   0.942318 1  59e             Rx   d 8 00 00 0C 76 18 00 00 00   Length = 0 BitCount = 0 ID = 1438
   0.942591 1  5bc             Rx   d 8 3D 80 F0 64 B0 01 00 32   Length = 0 BitCount = 0 ID = 1468
   1.042092 1  55b             Rx   d 8 A4 40 AA 00 DF C0 12 1A   Length = 0 BitCount = 0 ID = 1371
   1.042311 1  59e             Rx   d 8 00 00 0C 76 18 00 00 00   Length = 0 BitCount = 0 ID = 1438
   1.042561 1  5bc             Rx   d 8 3D 80 F0 64 B0 01 00 32   Length = 0 BitCount = 0 ID = 1468
   1.142176 1  55b             Rx   d 8 A4 40 AA 00 DF C0 13 9F   Length = 0 BitCount = 0 ID = 1371
   1.142365 1  59e             Rx   d 8 00 00 0C 76 18 00 00 00   Length = 0 BitCount = 0 ID = 1438
   1.142565 1  5bc             Rx   d 8 3D 80 F0 64 B0 01 00 32   Length = 0 BitCount = 0 ID = 1468
   1.242125 1  55b             Rx   d 8 A4 40 AA 00 DF C0 10 95   Length = 0 BitCount = 0 ID = 1371
   1.242326 1  59e             Rx   d 8 00 00 0C 76 18 00 00 00   Length = 0 BitCount = 0 ID = 1438
   1.242625 1  5bc             Rx   d 8 3D 80 F0 64 B0 01 00 32   Length = 0 BitCount = 0 ID = 1468
   1.342137 1  55b             Rx   d 8 A4 40 AA 00 DF C0 11 10   Length = 0 BitCount = 0 ID = 1371
   1.342312 1  59e             Rx   d 8 00 00 0C 76 18 00 00 00   Length = 0 BitCount = 0 ID = 1438
   1.342604 1  5bc             Rx   d 8 3D 80 F0 64 B0 01 00 32   Length = 0 BitCount = 0 ID = 1468
   1.442068 1  55b             Rx   d 8 A4 40 AA 00 DF C0 12 1A   Length = 0 BitCount = 0 ID = 1371
   1.442291 1  59e             Rx   d 8 00 00 0C 76 18 00 00 00   Length = 0 BitCount = 0 ID = 1438
   1.442626 1  5bc             Rx   d 8 3D 80 F0 64 B0 01 00 32   Length = 0 BitCount = 0 ID = 1468
   1.542164 1  55b             Rx   d 8 A4 40 AA 00 DF C0 13 9F   Length = 0 BitCount = 0 ID = 1371
   1.542327 1  59e             Rx   d 8 00 00 0C 76 18 00 00 00   Length = 0 BitCount = 0 ID = 1438
   1.542647 1  5bc             Rx   d 8 3D 80 F0 64 B0 01 00 32   Length = 0 BitCount = 0 ID = 1468
   1.642153 1  55b             Rx   d 8 A4 40 AA 00 DF C0 10 95   Length = 0 BitCount = 0 ID = 1371
   1.642367 1  59e             Rx   d 8 00 00 0C 76 18 00 00 00   Length = 0 BitCount = 0 ID = 1438
   1.642596 1  5bc             Rx   d 8 3D 80 F0 64 B0 01 00 32   Length = 0 BitCount = 0 ID = 1468
   1.742148 1  55b             Rx   d 8 A4 40 AA 00 DF C0 11 10   Length = 0 BitCount = 0 ID = 1371
   1.742313 1  59e             Rx   d 8 00 00 0C 76 18 00 00 00   Length = 0 BitCount = 0 ID = 1438
   1.742623 1  5bc             Rx   d 8 3D 80 F0 64 B0 01 00 32   Length = 0 BitCount = 0 ID = 1468
   1.842118 1  55b             Rx   d 8 A4 40 AA 00 DF C0 12 1A   Length = 0 BitCount = 0 ID = 1371
   1.842375 1  59e             Rx   d 8 00 00 0C 76 18 00 00 00   Length = 0 BitCount = 0 ID = 1438
   1.842594 1  5bc             Rx   d 8 3D 80 F0 64 B0 01 00 32   Length = 0 BitCount = 0 ID = 1468
   1.942108 1  55b             Rx   d 8 A4 40 AA 00 DF C0 13 9F   Length = 0 BitCount = 0 ID = 1371
   1.942384 1  59e             Rx   d 8 00 00 0C 76 18 00 00 00   Length = 0 BitCount = 0 ID = 1438
   1.942624 1  5bc             Rx   d 8 3D 80 F0 64 B0 01 00 32   Length = 0 BitCount = 0 ID = 1468
   2.042223 1  55b             Rx   d 8 A4 40 AA 00 DF C0 10 95   Length = 0 BitCount = 0 ID = 1371
   2.042393 1  59e             Rx   d 8 00 00 0C 76 18 00 00 00   Length = 0 BitCount = 0 ID = 1438
   2.042623 1  5bc             Rx   d 8 3D 80 F0 64 B0 01 00 32   Length = 0 BitCount = 0 ID = 1468
   2.142131 1  55b             Rx   d 8 A4 40 AA 00 DF C0 11 10   Length = 0 BitCount = 0 ID = 1371
   2.142325 1  59e             Rx   d 8 00 00 0C 76 18 00 00 00   Length = 0 BitCount = 0 ID = 1438
   2.142630 1  5bc             Rx   d 8 3D 80 F0 64 B0 01 00 32   Length = 0 BitCount = 0 ID = 1468
   2.242149 1  55b             Rx   d 8 A4 40 AA 00 DF C0 12 1A   Length = 0 BitCount = 0 ID = 1371
   2.242369 1  59e             Rx   d 8 00 00 0C 76 18 00 00 00   Length = 0 BitCount = 0 ID = 1438
   2.242582 1  5bc             Rx   d 8 3D 80 F0 64 B0 01 00 32   Length = 0 BitCount = 0 ID = 1468
   2.342221 1  55b             Rx   d 8 A4 40 AA 00 DF C0 13 9F   Length = 0 BitCount = 0 ID = 1371
   2.342418 1  59e             Rx   d 8 00 00 0C 76 18 00 00 00   Length = 0 BitCount = 0 ID = 1438
   2.342555 1  5bc             Rx   d 8 3D 80 F0 64 B0 01 00 32   Length = 0 BitCount = 0 ID = 1468
   2.442179 1  55b             Rx   d 8 A4 40 AA 00 DF C0 10 95   Length = 0 BitCount = 0 ID = 1371
   2.442351 1  59e             Rx   d 8 00 00 0C 76 18 00 00 00   Length = 0 BitCount = 0 ID = 1438
   2.442627 1  5bc             Rx   d 8 3D 80 F0 64 B0 01 00 32   Length = 0 BitCount = 0 ID = 1468
   2.542177 1  55b             Rx   d 8 A4 40 AA 00 DF C0 11 10   Length = 0 BitCount = 0 ID = 1371
   2.542326 1  59e             Rx   d 8 00 00 0C 76 18 00 00 00   Length = 0 BitCount = 0 ID = 1438
   2.542647 1  5bc             Rx   d 8 3D 80 F0 64 B0 01 00 32   Length = 0 BitCount = 0 ID = 1468
   2.642180 1  55b             Rx   d 8 A4 40 AA 00 DF C0 12 1A   Length = 0 BitCount = 0 ID = 1371
   2.642381 1  59e             Rx   d 8 00 00 0C 76 18 00 00 00   Length = 0 BitCount = 0 ID = 1438
   2.642609 1  5bc             Rx   d 8 3D 80 F0 64 B0 01 00 32   Length = 0 BitCount = 0 ID = 1468
   2.742165 1  55b             Rx   d 8 A4 40 AA 00 DF C0 13 9F   Length = 0 BitCount = 0 ID = 1371
   2.742331 1  59e             Rx   d 8 00 00 0C 76 18 00 00 00   Length = 0 BitCount = 0 ID = 1438
   2.742620 1  5bc             Rx   d 8 3D 80 F0 64 B0 01 00 32   Length = 0 BitCount = 0 ID = 1468
   2.842184 1  55b             Rx   d 8 A4 40 AA 00 DF C0 10 95   Length = 0 BitCount = 0 ID = 1371
   2.842391 1  59e             Rx   d 8 00 00 0C 76 18 00 00 00   Length = 0 BitCount = 0 ID = 1438
   2.842630 1  5bc             Rx   d 8 3D 80 F0 64 B0 01 00 32   Length = 0 BitCount = 0 ID = 1468
   2.942186 1  55b             Rx   d 8 A4 40 AA 00 DF C0 11 10   Length = 0 BitCount = 0 ID = 1371
   2.942328 1  59e             Rx   d 8 00 00 0C 76 18 00 00 00   Length = 0 BitCount = 0 ID = 1438
   2.942659 1  5bc             Rx   d 8 3D 80 F0 64 B0 01 00 32   Length = 0 BitCount = 0 ID = 1468
   3.042250 1  55b             Rx   d 8 A4 40 AA 00 DF C0 12 1A   Length = 0 BitCount = 0 ID = 1371
   3.042424 1  59e             Rx   d 8 00 00 0C 76 18 00 00 00   Length = 0 BitCount = 0 ID = 1438
   3.042662 1  5bc             Rx   d 8 3D 80 F0 64 B0 01 00 32   Length = 0 BitCount = 0 ID = 1468
   3.142141 1  55b             Rx   d 8 A4 40 AA 00 DF C0 13 9F   Length = 0 BitCount = 0 ID = 1371
   3.142359 1  59e             Rx   d 8 00 00 0C 76 18 00 00 00   Length = 0 BitCount = 0 ID = 1438
   3.142637 1  5bc             Rx   d 8 3D 80 F0 64 B0 01 00 32   Length = 0 BitCount = 0 ID = 1468
   3.242173 1  55b             Rx   d 8 A4 40 AA 00 DF C0 10 95   Length = 0 BitCount = 0 ID = 1371
   3.242369 1  59e             Rx   d 8 00 00 0C 76 18 00 00 00   Length = 0 BitCount = 0 ID = 1438
   3.242614 1  5bc             Rx   d 8 3D 80 F0 64 B0 01 00 32   Length = 0 BitCount = 0 ID = 1468
   3.342209 1  55b             Rx   d 8 A4 40 AA 00 DF C0 11 10   Length = 0 BitCount = 0 ID = 1371
   3.342444 1  59e             Rx   d 8 00 00 0C 76 18 00 00 00   Length = 0 BitCount = 0 ID = 1438
   3.342648 1  5bc             Rx   d 8 3D 80 F0 64 B0 01 00 32   Length = 0 BitCount = 0 ID = 1468
   3.442200 1  55b             Rx   d 8 A4 40 AA 00 DF C0 12 1A   Length = 0 BitCount = 0 ID = 1371
   3.442412 1  59e             Rx   d 8 00 00 0C 76 18 00 00 00   Length = 0 BitCount = 0 ID = 1438
   3.442648 1  5bc             Rx   d 8 3D 80 F0 64 B0 01 00 32   Length = 0 BitCount = 0 ID = 1468
   3.542168 1  55b             Rx   d 8 A4 40 AA 00 DF C0 13 9F   Length = 0 BitCount = 0 ID = 1371
   3.542344 1  59e             Rx   d 8 00 00 0C 76 18 00 00 00   Length = 0 BitCount = 0 ID = 1438
   3.542679 1  5bc             Rx   d 8 3D 80 F0 64 B0 01 00 32   Length = 0 BitCount = 0 ID = 1468
   3.642159 1  55b             Rx   d 8 A4 40 AA 00 DF C0 10 95   Length = 0 BitCount = 0 ID = 1371
   3.642422 1  59e             Rx   d 8 00 00 0C 76 18 00 00 00   Length = 0 BitCount = 0 ID = 1438
   3.642658 1  5bc             Rx   d 8 3D 80 F0 64 B0 01 00 32   Length = 0 BitCount = 0 ID = 1468
   3.742215 1  55b             Rx   d 8 A4 40 AA 00 DF C0 11 10   Length = 0 BitCount = 0 ID = 1371
   3.742360 1  59e             Rx   d 8 00 00 0C 76 18 00 00 00   Length = 0 BitCount = 0 ID = 1438
   3.742691 1  5bc             Rx   d 8 3D 80 F0 64 B0 01 00 32   Length = 0 BitCount = 0 ID = 1468
   3.842247 1  55b             Rx   d 8 A4 40 AA 00 DF C0 12 1A   Length = 0 BitCount = 0 ID = 1371
   3.842447 1  59e             Rx   d 8 00 00 0C 76 18 00 00 00   Length = 0 BitCount = 0 ID = 1438
   3.842690 1  5bc             Rx   d 8 3D 80 F0 64 B0 01 00 32   Length = 0 BitCount = 0 ID = 1468
   3.942281 1  55b             Rx   d 8 A4 40 AA 00 DF C0 13 9F   Length = 0 BitCount = 0 ID = 1371
   3.942454 1  59e             Rx   d 8 00 00 0C 76 18 00 00 00   Length = 0 BitCount = 0 ID = 1438
   3.942659 1  5bc             Rx   d 8 3D 80 F0 64 B0 01 00 32   Length = 0 BitCount = 0 ID = 1468
   4.042206 1  55b             Rx   d 8 A4 40 AA 00 DF C0 10 95   Length = 0 BitCount = 0 ID = 1371
   4.042422 1  59e             Rx   d 8 00 00 0C 76 18 00 00 00   Length = 0 BitCount = 0 ID = 1438
   4.042669 1  5bc             Rx   d 8 3D 80 F0 64 B0 01 00 32   Length = 0 BitCount = 0 ID = 1468
   4.142203 1  55b             Rx   d 8 A4 40 AA 00 DF C0 11 10   Length = 0 BitCount = 0 ID = 1371
   4.142370 1  59e             Rx   d 8 00 00 0C 76 18 00 00 00   Length = 0 BitCount = 0 ID = 1438
   4.142700 1  5bc             Rx   d 8 3D 80 F0 64 B0 01 00 32   Length = 0 BitCount = 0 ID = 1468
   4.242218 1  55b             Rx   d 8 A4 40 AA 00 DF C0 12 1A   Length = 0 BitCount = 0 ID = 1371
   4.242432 1  59e             Rx   d 8 00 00 0C 76 18 00 00 00   Length = 0 BitCount = 0 ID = 1438
   4.242675 1  5bc             Rx   d 8 3D 80 F0 64 B0 01 00 32   Length = 0 BitCount = 0 ID = 1468
   4.342126 1  55b             Rx   d 8 A4 40 AA 00 DF C0 13 9F   Length = 0 BitCount = 0 ID = 1371
   4.342369 1  59e             Rx   d 8 00 00 0C 76 18 00 00 00   Length = 0 BitCount = 0 ID = 1438
   4.342615 1  5bc             Rx   d 8 3D 80 F0 64 B0 01 00 32   Length = 0 BitCount = 0 ID = 1468
   4.442225 1  55b             Rx   d 8 A4 40 AA 00 DF C0 10 95   Length = 0 BitCount = 0 ID = 1371
   4.442437 1  59e             Rx   d 8 00 00 0C 76 18 00 00 00   Length = 0 BitCount = 0 ID = 1438
   4.442644 1  5bc             Rx   d 8 3D 80 F0 64 B0 01 00 32   Length = 0 BitCount = 0 ID = 1468
   4.542222 1  55b             Rx   d 8 A4 40 AA 00 DF C0 11 10   Length = 0 BitCount = 0 ID = 1371
   4.542382 1  59e             Rx   d 8 00 00 0C 76 18 00 00 00   Length = 0 BitCount = 0 ID = 1438
   4.542681 1  5bc             Rx   d 8 3D 80 F0 64 B0 01 00 32   Length = 0 BitCount = 0 ID = 1468
   4.642227 1  55b             Rx   d 8 A4 40 AA 00 DF C0 12 1A   Length = 0 BitCount = 0 ID = 1371
   4.642433 1  59e             Rx   d 8 00 00 0C 76 18 00 00 00   Length = 0 BitCount = 0 ID = 1438
   4.642689 1  5bc             Rx   d 8 3D 80 F0 64 B0 01 00 32   Length = 0 BitCount = 0 ID = 1468
   4.742237 1  55b             Rx   d 8 A4 40 AA 00 DF C0 13 9F   Length = 0 BitCount = 0 ID = 1371
   4.742475 1  59e             Rx   d 8 00 00 0C 76 18 00 00 00   Length = 0 BitCount = 0 ID = 1438
   4.742686 1  5bc             Rx   d 8 3D 80 F0 64 B0 01 00 32   Length = 0 BitCount = 0 ID = 1468
   4.842207 1  55b             Rx   d 8 A4 40 AA 00 DF C0 10 95   Length = 0 BitCount = 0 ID = 1371
   4.842428 1  59e             Rx   d 8 00 00 0C 76 18 00 00 00   Length = 0 BitCount = 0 ID = 1438
   4.842690 1  5bc             Rx   d 8 3D 80 F0 64 B0 01 00 32   Length = 0 BitCount = 0 ID = 1468
   4.942226 1  55b             Rx   d 8 A4 40 AA 00 DF C0 11 10   Length = 0 BitCount = 0 ID = 1371
   4.942372 1  59e             Rx   d 8 00 00 0C 76 18 00 00 00   Length = 0 BitCount = 0 ID = 1438
   4.942710 1  5bc             Rx   d 8 3D 80 F0 64 B0 01 00 32   Length = 0 BitCount = 0 ID = 1468
   5.042232 1  55b             Rx   d 8 A4 40 AA 00 DF C0 12 1A   Length = 0 BitCount = 0 ID = 1371
   5.042440 1  59e             Rx   d 8 00 00 0C 76 18 00 00 00   Length = 0 BitCount = 0 ID = 1438
   5.042688 1  5bc             Rx   d 8 3D 80 F0 64 B0 01 00 32   Length = 0 BitCount = 0 ID = 1468
   5.142230 1  55b             Rx   d 8 A4 40 AA 00 DF C0 13 9F   Length = 0 BitCount = 0 ID = 1371
   5.142448 1  59e             Rx   d 8 00 00 0C 76 18 00 00 00   Length = 0 BitCount = 0 ID = 1438
   5.142702 1  5bc             Rx   d 8 3D 80 F0 64 B0 01 00 32   Length = 0 BitCount = 0 ID = 1468
   5.242247 1  55b             Rx   d 8 A4 40 AA 00 DF C0 10 95   Length = 0 BitCount = 0 ID = 1371
   5.242440 1  59e             Rx   d 8 00 00 0C 76 18 00 00 00   Length = 0 BitCount = 0 ID = 1438
   5.242668 1  5bc             Rx   d 8 3D 80 F0 64 B0 01 00 32   Length = 0 BitCount = 0 ID = 1468
   5.342251 1  55b             Rx   d 8 A4 40 AA 00 DF C0 11 10   Length = 0 BitCount = 0 ID = 1371
   5.342452 1  59e             Rx   d 8 00 00 0C 76 18 00 00 00   Length = 0 BitCount = 0 ID = 1438
   5.342681 1  5bc             Rx   d 8 3D 80 F0 64 B0 01 00 32   Length = 0 BitCount = 0 ID = 1468
   5.442190 1  55b             Rx   d 8 A4 40 AA 00 DF C0 12 1A   Length = 0 BitCount = 0 ID = 1371
   5.442445 1  59e             Rx   d 8 00 00 0C 76 18 00 00 00   Length = 0 BitCount = 0 ID = 1438
   5.442714 1  5bc             Rx   d 8 3D 80 F0 64 B0 01 00 32   Length = 0 BitCount = 0 ID = 1468
   5.542171 1  55b             Rx   d 8 A4 40 AA 00 DF C0 13 9F   Length = 0 BitCount = 0 ID = 1371
   5.542445 1  59e             Rx   d 8 00 00 0C 76 18 00 00 00   Length = 0 BitCount = 0 ID = 1438
   5.542691 1  5bc             Rx   d 8 3D 80 F0 64 B0 01 00 32   Length = 0 BitCount = 0 ID = 1468
   5.642258 1  55b             Rx   d 8 A4 40 AA 00 DF C0 10 95   Length = 0 BitCount = 0 ID = 1371
   5.642457 1  59e             Rx   d 8 00 00 0C 76 18 00 00 00   Length = 0 BitCount = 0 ID = 1438
   5.642696 1  5bc             Rx   d 8 3D 80 F0 64 B0 01 00 32   Length = 0 BitCount = 0 ID = 1468
   5.742237 1  55b             Rx   d 8 A4 40 AA 00 DF C0 11 10   Length = 0 BitCount = 0 ID = 1371
   5.742485 1  59e             Rx   d 8 00 00 0C 76 18 00 00 00   Length = 0 BitCount = 0 ID = 1438
   5.742654 1  5bc             Rx   d 8 3D 80 F0 64 B0 01 00 32   Length = 0 BitCount = 0 ID = 1468
   5.842261 1  55b             Rx   d 8 A4 40 AA 00 DF C0 12 1A   Length = 0 BitCount = 0 ID = 1371
   5.842474 1  59e             Rx   d 8 00 00 0C 76 18 00 00 00   Length = 0 BitCount = 0 ID = 1438
   5.842699 1  5bc             Rx   d 8 3D 80 F0 64 B0 01 00 32   Length = 0 BitCount = 0 ID = 1468
   5.942276 1  55b             Rx   d 8 A4 40 AA 00 DF C0 13 9F   Length = 0 BitCount = 0 ID = 1371
   5.942502 1  59e             Rx   d 8 00 00 0C 76 18 00 00 00   Length = 0 BitCount = 0 ID = 1438
   5.942683 1  5bc             Rx   d 8 3D 80 F0 64 B0 01 00 32   Length = 0 BitCount = 0 ID = 1468
   6.042262 1  55b             Rx   d 8 A4 40 AA 00 DF C0 10 95   Length = 0 BitCount = 0 ID = 1371
   6.042465 1  59e             Rx   d 8 00 00 0C 76 18 00 00 00   Length = 0 BitCount = 0 ID = 1438
   6.042709 1  5bc             Rx   d 8 3D 80 F0 64 B0 01 00 32   Length = 0 BitCount = 0 ID = 1468
   6.142259 1  55b             Rx   d 8 A4 40 AA 00 DF C0 11 10   Length = 0 BitCount = 0 ID = 1371
   6.142416 1  59e             Rx   d 8 00 00 0C 76 18 00 00 00   Length = 0 BitCount = 0 ID = 1438
   6.142697 1  5bc             Rx   d 8 3D 80 F0 64 B0 01 00 32   Length = 0 BitCount = 0 ID = 1468
   6.242268 1  55b             Rx   d 8 A4 40 AA 00 DF C0 12 1A   Length = 0 BitCount = 0 ID = 1371
   6.242461 1  59e             Rx   d 8 00 00 0C 76 18 00 00 00   Length = 0 BitCount = 0 ID = 1438
   6.242723 1  5bc             Rx   d 8 3D 80 F0 64 B0 01 00 32   Length = 0 BitCount = 0 ID = 1468
   6.342334 1  55b             Rx   d 8 A4 40 AA 00 DF C0 13 9F   Length = 0 BitCount = 0 ID = 1371
   6.342471 1  59e             Rx   d 8 00 00 0C 76 18 00 00 00   Length = 0 BitCount = 0 ID = 1438
   6.342698 1  5bc             Rx   d 8 3D 80 F0 64 B0 01 00 32   Length = 0 BitCount = 0 ID = 1468
   6.442253 1  55b             Rx   d 8 A4 40 AA 00 DF C0 10 95   Length = 0 BitCount = 0 ID = 1371
   6.442512 1  59e             Rx   d 8 00 00 0C 76 18 00 00 00   Length = 0 BitCount = 0 ID = 1438
   6.442744 1  5bc             Rx   d 8 3D 80 F0 64 B0 01 00 32   Length = 0 BitCount = 0 ID = 1468
   6.542262 1  55b             Rx   d 8 A4 40 AA 00 DF C0 11 10   Length = 0 BitCount = 0 ID = 1371
   6.542423 1  59e             Rx   d 8 00 00 0C 76 18 00 00 00   Length = 0 BitCount = 0 ID = 1438
   6.542757 1  5bc             Rx   d 8 3D 80 F0 64 B0 01 00 32   Length = 0 BitCount = 0 ID = 1468
   6.642283 1  55b             Rx   d 8 A4 40 AA 00 DF C0 12 1A   Length = 0 BitCount = 0 ID = 1371
   6.642478 1  59e             Rx   d 8 00 00 0C 76 18 00 00 00   Length = 0 BitCount = 0 ID = 1438
   6.642754 1  5bc             Rx   d 8 3D 80 F0 64 B0 01 00 32   Length = 0 BitCount = 0 ID = 1468
   6.742218 1  55b             Rx   d 8 A4 40 AA 00 DF C0 13 9F   Length = 0 BitCount = 0 ID = 1371
   6.742474 1  59e             Rx   d 8 00 00 0C 76 18 00 00 00   Length = 0 BitCount = 0 ID = 1438
   6.742719 1  5bc             Rx   d 8 3D 80 F0 64 B0 01 00 32   Length = 0 BitCount = 0 ID = 1468
   6.842268 1  55b             Rx   d 8 A4 40 AA 00 DF C0 10 95   Length = 0 BitCount = 0 ID = 1371
   6.842499 1  59e             Rx   d 8 00 00 0C 76 18 00 00 00   Length = 0 BitCount = 0 ID = 1438
   6.842743 1  5bc             Rx   d 8 3D 80 F0 64 B0 01 00 32   Length = 0 BitCount = 0 ID = 1468
   6.942280 1  55b             Rx   d 8 A4 40 AA 00 DF C0 11 10   Length = 0 BitCount = 0 ID = 1371
   6.942509 1  59e             Rx   d 8 00 00 0C 76 18 00 00 00   Length = 0 BitCount = 0 ID = 1438
   6.942710 1  5bc             Rx   d 8 3D 80 F0 64 B0 01 00 32   Length = 0 BitCount = 0 ID = 1468
   7.042241 1  55b             Rx   d 8 A4 40 AA 00 DF C0 12 1A   Length = 0 BitCount = 0 ID = 1371
   7.042500 1  59e             Rx   d 8 00 00 0C 76 18 00 00 00   Length = 0 BitCount = 0 ID = 1438
   7.042717 1  5bc             Rx   d 8 3D 80 F0 64 B0 01 00 32   Length = 0 BitCount = 0 ID = 1468
   7.142274 1  55b             Rx   d 8 A4 40 AA 00 DF C0 13 9F   Length = 0 BitCount = 0 ID = 1371
   7.142507 1  59e             Rx   d 8 00 00 0C 76 18 00 00 00   Length = 0 BitCount = 0 ID = 1438
   7.142753 1  5bc             Rx   d 8 3D 80 F0 64 B0 01 00 32   Length = 0 BitCount = 0 ID = 1468
   7.242323 1  55b             Rx   d 8 A4 40 AA 00 DF C0 10 95   Length = 0 BitCount = 0 ID = 1371
   7.242459 1  59e             Rx   d 8 00 00 0C 76 18 00 00 00   Length = 0 BitCount = 0 ID = 1438
   7.242807 1  5bc             Rx   d 8 3D 80 F0 64 B0 01 00 32   Length = 0 BitCount = 0 ID = 1468
   7.342284 1  55b             Rx   d 8 A4 40 AA 00 DF C0 11 10   Length = 0 BitCount = 0 ID = 1371
   7.342498 1  59e             Rx   d 8 00 00 0C 76 18 00 00 00   Length = 0 BitCount = 0 ID = 1438
   7.342737 1  5bc             Rx   d 8 3D 80 F0 64 B0 01 00 32   Length = 0 BitCount = 0 ID = 1468
   7.442308 1  55b             Rx   d 8 A4 40 AA 00 DF C0 12 1A   Length = 0 BitCount = 0 ID = 1371
   7.442514 1  59e             Rx   d 8 00 00 0C 76 18 00 00 00   Length = 0 BitCount = 0 ID = 1438
   7.442730 1  5bc             Rx   d 8 3D 80 F0 64 B0 01 00 32   Length = 0 BitCount = 0 ID = 1468
   7.542288 1  55b             Rx   d 8 A4 40 AA 00 DF C0 13 9F   Length = 0 BitCount = 0 ID = 1371
   7.542521 1  59e             Rx   d 8 00 00 0C 76 18 00 00 00   Length = 0 BitCount = 0 ID = 1438
   7.542732 1  5bc             Rx   d 8 3D 80 F0 64 B0 01 00 32   Length = 0 BitCount = 0 ID = 1468
   7.642350 1  55b             Rx   d 8 A4 40 AA 00 DF C0 10 95   Length = 0 BitCount = 0 ID = 1371
   7.642477 1  59e             Rx   d 8 00 00 0C 76 18 00 00 00   Length = 0 BitCount = 0 ID = 1438
   7.642761 1  5bc             Rx   d 8 3D 80 F0 64 B0 01 00 32   Length = 0 BitCount = 0 ID = 1468
   7.742350 1  55b             Rx   d 8 A4 40 AA 00 DF C0 11 10   Length = 0 BitCount = 0 ID = 1371
   7.742443 1  59e             Rx   d 8 00 00 0C 76 18 00 00 00   Length = 0 BitCount = 0 ID = 1438
   7.742739 1  5bc             Rx   d 8 3D 80 F0 64 B0 01 00 32   Length = 0 BitCount = 0 ID = 1468
   7.842362 1  55b             Rx   d 8 A4 40 AA 00 DF C0 12 1A   Length = 0 BitCount = 0 ID = 1371
   7.842497 1  59e             Rx   d 8 00 00 0C 76 18 00 00 00   Length = 0 BitCount = 0 ID = 1438
   7.842756 1  5bc             Rx   d 8 3D 80 F0 64 B0 01 00 32   Length = 0 BitCount = 0 ID = 1468
   7.942366 1  55b             Rx   d 8 A4 40 AA 00 DF C0 13 9F   Length = 0 BitCount = 0 ID = 1371
   7.942503 1  59e             Rx   d 8 00 00 0C 76 18 00 00 00   Length = 0 BitCount = 0 ID = 1438
   7.942747 1  5bc             Rx   d 8 3D 80 F0 64 B0 01 00 32   Length = 0 BitCount = 0 ID = 1468
   8.042371 1  55b             Rx   d 8 A4 40 AA 00 DF C0 10 95   Length = 0 BitCount = 0 ID = 1371
   8.042506 1  59e             Rx   d 8 00 00 0C 76 18 00 00 00   Length = 0 BitCount = 0 ID = 1438
   8.042730 1  5bc             Rx   d 8 3D 80 F0 64 B0 01 00 32   Length = 0 BitCount = 0 ID = 1468
   8.142283 1  55b             Rx   d 8 A4 40 AA 00 DF C0 11 10   Length = 0 BitCount = 0 ID = 1371
   8.142508 1  59e             Rx   d 8 00 00 0C 76 18 00 00 00   Length = 0 BitCount = 0 ID = 1438
   8.142779 1  5bc             Rx   d 8 3D 80 F0 64 B0 01 00 32   Length = 0 BitCount = 0 ID = 1468
   8.242368 1  55b             Rx   d 8 A4 40 AA 00 DF C0 12 1A   Length = 0 BitCount = 0 ID = 1371
   8.242504 1  59e             Rx   d 8 00 00 0C 76 18 00 00 00   Length = 0 BitCount = 0 ID = 1438
   8.242789 1  5bc             Rx   d 8 3D 80 F0 64 B0 01 00 32   Length = 0 BitCount = 0 ID = 1468
   8.342377 1  55b             Rx   d 8 A4 40 AA 00 DF C0 13 9F   Length = 0 BitCount = 0 ID = 1371
   8.342513 1  59e             Rx   d 8 00 00 0C 76 18 00 00 00   Length = 0 BitCount = 0 ID = 1438
   8.342751 1  5bc             Rx   d 8 3D 80 F0 64 B0 01 00 32   Length = 0 BitCount = 0 ID = 1468
   8.442385 1  55b             Rx   d 8 A4 40 AA 00 DF C0 10 95   Length = 0 BitCount = 0 ID = 1371
   8.442524 1  59e             Rx   d 8 00 00 0C 76 18 00 00 00   Length = 0 BitCount = 0 ID = 1438
   8.442812 1  5bc             Rx   d 8 3D 80 F0 64 B0 01 00 32   Length = 0 BitCount = 0 ID = 1468
   8.542392 1  55b             Rx   d 8 A4 40 AA 00 DF C0 11 10   Length = 0 BitCount = 0 ID = 1371
   8.542532 1  59e             Rx   d 8 00 00 0C 76 18 00 00 00   Length = 0 BitCount = 0 ID = 1438
   8.542769 1  5bc             Rx   d 8 3D 80 F0 64 B0 01 00 32   Length = 0 BitCount = 0 ID = 1468
   8.642393 1  55b             Rx   d 8 A4 40 AA 00 DF C0 12 1A   Length = 0 BitCount = 0 ID = 1371
   8.642529 1  59e             Rx   d 8 00 00 0C 76 18 00 00 00   Length = 0 BitCount = 0 ID = 1438
   8.642832 1  5bc             Rx   d 8 3D 80 F0 64 B0 01 00 32   Length = 0 BitCount = 0 ID = 1468
   8.742384 1  55b             Rx   d 8 A4 40 AA 00 DF C0 13 9F   Length = 0 BitCount = 0 ID = 1371
   8.742493 1  59e             Rx   d 8 00 00 0C 76 18 00 00 00   Length = 0 BitCount = 0 ID = 1438
   8.742739 1  5bc             Rx   d 8 3D 80 F0 64 B0 01 00 32   Length = 0 BitCount = 0 ID = 1468
   8.842367 1  55b             Rx   d 8 A4 40 AA 00 DF C0 10 95   Length = 0 BitCount = 0 ID = 1371
   8.842509 1  59e             Rx   d 8 00 00 0C 76 18 00 00 00   Length = 0 BitCount = 0 ID = 1438
   8.842805 1  5bc             Rx   d 8 3D 80 F0 64 B0 01 00 32   Length = 0 BitCount = 0 ID = 1468
   8.942396 1  55b             Rx   d 8 A4 40 AA 00 DF C0 11 10   Length = 0 BitCount = 0 ID = 1371
   8.942543 1  59e             Rx   d 8 00 00 0C 76 18 00 00 00   Length = 0 BitCount = 0 ID = 1438
   8.942777 1  5bc             Rx   d 8 3D 80 F0 64 B0 01 00 32   Length = 0 BitCount = 0 ID = 1468
   9.028644 1  1da             Rx   d 8 02 00 00 00 00 00 82 08   Length = 0 BitCount = 0 ID = 474
   9.029805 1  390             Rx   d 8 04 00 00 00 00 80 21 1C   Length = 0 BitCount = 0 ID = 912
   9.029940 1  393             Rx   d 8 00 10 00 00 20 00 00 13   Length = 0 BitCount = 0 ID = 915
   9.038679 1  1da             Rx   d 8 02 40 00 00 00 00 83 2F   Length = 0 BitCount = 0 ID = 474
   9.042403 1  55b             Rx   d 8 A4 40 AA 00 DF C0 12 1A   Length = 0 BitCount = 0 ID = 1371
   9.042538 1  59e             Rx   d 8 00 00 0C 76 18 00 00 00   Length = 0 BitCount = 0 ID = 1438
   9.042829 1  5bc             Rx   d 8 3D 80 F0 64 B0 01 00 32   Length = 0 BitCount = 0 ID = 1468
   9.048556 1  1da             Rx   d 8 02 40 00 00 00 00 80 25   Length = 0 BitCount = 0 ID = 474
   9.058558 1  1da             Rx   d 8 02 00 00 00 00 00 81 02   Length = 0 BitCount = 0 ID = 474
   9.068559 1  1da             Rx   d 8 02 00 00 00 00 00 82 08   Length = 0 BitCount = 0 ID = 474
   9.078551 1  1da             Rx   d 8 02 40 00 00 00 00 83 2F   Length = 0 BitCount = 0 ID = 474
   9.088547 1  1da             Rx   d 8 02 40 00 00 00 00 80 25   Length = 0 BitCount = 0 ID = 474
   9.098556 1  1da             Rx   d 8 02 00 00 00 00 00 81 02   Length = 0 BitCount = 0 ID = 474
   9.108534 1  1da             Rx   d 8 02 00 00 00 00 00 82 08   Length = 0 BitCount = 0 ID = 474
   9.118633 1  1da             Rx   d 8 02 40 00 00 00 00 83 2F   Length = 0 BitCount = 0 ID = 474
   9.118735 1  55a             Rx   d 8 00 3B 3B 00 5F 00 92 C8   Length = 0 BitCount = 0 ID = 1370
   9.128579 1  1da             Rx   d 8 02 40 00 00 00 00 80 25   Length = 0 BitCount = 0 ID = 474
   9.129594 1  390             Rx   d 8 04 00 00 00 00 80 21 2D   Length = 0 BitCount = 0 ID = 912
   9.129802 1  393             Rx   d 8 00 10 00 00 20 00 00 24   Length = 0 BitCount = 0 ID = 915
   9.138616 1  1da             Rx   d 8 02 00 00 00 00 00 01 8B   Length = 0 BitCount = 0 ID = 474
   9.142378 1  55b             Rx   d 8 A4 40 AA 00 DF C0 13 9F   Length = 0 BitCount = 0 ID = 1371
   9.142553 1  59e             Rx   d 8 00 00 0C 76 18 00 00 00   Length = 0 BitCount = 0 ID = 1438
   9.142791 1  5bc             Rx   d 8 3D 80 F0 64 B0 01 00 32   Length = 0 BitCount = 0 ID = 1468
   9.148633 1  1da             Rx   d 8 02 00 00 00 00 00 02 81   Length = 0 BitCount = 0 ID = 474
   9.158579 1  1da             Rx   d 8 02 40 00 00 00 00 03 A6   Length = 0 BitCount = 0 ID = 474
   9.168596 1  1da             Rx   d 8 02 40 00 00 00 00 00 AC   Length = 0 BitCount = 0 ID = 474
   9.178564 1  1da             Rx   d 8 02 00 00 00 00 00 01 8B   Length = 0 BitCount = 0 ID = 474
   9.188557 1  1da             Rx   d 8 02 00 00 00 00 00 02 81   Length = 0 BitCount = 0 ID = 474
   9.198559 1  1da             Rx   d 8 02 40 00 00 00 00 03 A6   Length = 0 BitCount = 0 ID = 474
   9.208562 1  1da             Rx   d 8 02 40 00 00 00 00 00 AC   Length = 0 BitCount = 0 ID = 474
   9.218635 1  1da             Rx   d 8 02 00 00 00 00 00 01 8B   Length = 0 BitCount = 0 ID = 474
   9.218821 1  55a             Rx   d 8 00 3B 3B 00 5F 00 7A C8   Length = 0 BitCount = 0 ID = 1370
   9.228634 1  1da             Rx   d 8 02 00 00 00 00 00 02 81   Length = 0 BitCount = 0 ID = 474
   9.229810 1  390             Rx   d 8 04 00 00 00 00 80 21 3E   Length = 0 BitCount = 0 ID = 912
   9.229945 1  393             Rx   d 8 00 10 00 00 20 00 00 35   Length = 0 BitCount = 0 ID = 915
   9.238624 1  1da             Rx   d 8 02 40 00 00 00 00 03 A6   Length = 0 BitCount = 0 ID = 474
   9.242327 1  55b             Rx   d 8 A4 40 AA 00 DF C0 10 95   Length = 0 BitCount = 0 ID = 1371
   9.242571 1  59e             Rx   d 8 00 00 0C 76 18 00 00 00   Length = 0 BitCount = 0 ID = 1438
   9.242815 1  5bc             Rx   d 8 3D 80 F0 64 B0 01 00 32   Length = 0 BitCount = 0 ID = 1468
   9.248660 1  1da             Rx   d 8 02 40 00 00 00 00 00 AC   Length = 0 BitCount = 0 ID = 474
   9.258598 1  1da             Rx   d 8 02 00 00 00 00 00 01 8B   Length = 0 BitCount = 0 ID = 474
   9.268584 1  1da             Rx   d 8 02 00 00 00 00 00 02 81   Length = 0 BitCount = 0 ID = 474
   9.278538 1  1da             Rx   d 8 0A 40 00 00 00 00 03 9E   Length = 0 BitCount = 0 ID = 474
   9.288573 1  1da             Rx   d 8 1F 40 00 00 00 00 00 FF   Length = 0 BitCount = 0 ID = 474
   9.298618 1  1da             Rx   d 8 46 00 00 00 00 00 01 D2   Length = 0 BitCount = 0 ID = 474
   9.308537 1  1da             Rx   d 8 5F 00 00 00 00 00 02 97   Length = 0 BitCount = 0 ID = 474
   9.318612 1  1da             Rx   d 8 74 40 00 00 00 00 03 61   Length = 0 BitCount = 0 ID = 474
   9.318773 1  55a             Rx   d 8 00 3B 3B 00 5F 00 7A C8   Length = 0 BitCount = 0 ID = 1370
   9.328614 1  1da             Rx   d 8 80 40 00 00 00 00 00 28   Length = 0 BitCount = 0 ID = 474
   9.329866 1  390             Rx   d 8 04 00 00 00 00 80 21 C7   Length = 0 BitCount = 0 ID = 912
   9.330002 1  393             Rx   d 8 00 10 00 00 20 00 00 02   Length = 0 BitCount = 0 ID = 915
   9.335829 1  1db             Rx   d 8 7F E0 FF C6 7F 00 00 0D   Length = 0 BitCount = 0 ID = 475
   9.335970 1  1dc             Rx   d 8 FF FF FF FF 1F FF FC 6B   Length = 0 BitCount = 0 ID = 476
   9.338610 1  1da             Rx   d 8 8F 00 00 00 00 00 01 22   Length = 0 BitCount = 0 ID = 474
   9.342344 1  55b             Rx   d 8 A4 40 AA 00 DF C0 11 10   Length = 0 BitCount = 0 ID = 1371
   9.342511 1  59e             Rx   d 8 00 00 0C 76 18 00 00 00   Length = 0 BitCount = 0 ID = 1438
   9.342797 1  5bc             Rx   d 8 3D 80 F0 64 B0 01 00 32   Length = 0 BitCount = 0 ID = 1468
   9.345811 1  1db             Rx   d 8 FF 80 FF C6 7F 00 01 F1   Length = 0 BitCount = 0 ID = 475
   9.345935 1  1dc             Rx   d 8 FF FF FF FF 01 1C E5 62   Length = 0 BitCount = 0 ID = 476
   9.348642 1  1da             Rx   d 8 9B 00 00 00 00 00 02 44   Length = 0 BitCount = 0 ID = 474
   9.355813 1  1db             Rx   d 8 FF A0 FF C6 7F 00 02 AA   Length = 0 BitCount = 0 ID = 475
   9.355947 1  1dc             Rx   d 8 FF FF FF FF 05 58 C6 83   Length = 0 BitCount = 0 ID = 476
   9.358567 1  1da             Rx   d 8 A1 40 00 00 00 00 03 C5   Length = 0 BitCount = 0 ID = 474
   9.365742 1  1db             Rx   d 8 FF 80 FF C6 7F 00 03 7E   Length = 0 BitCount = 0 ID = 475
   9.365930 1  1dc             Rx   d 8 FF FF FF FF 08 C0 C3 13   Length = 0 BitCount = 0 ID = 476
   9.368521 1  1da             Rx   d 8 A8 40 00 00 00 00 00 F0   Length = 0 BitCount = 0 ID = 474
   9.375729 1  1db             Rx   d 8 FF A0 FF C6 7F 00 00 25   Length = 0 BitCount = 0 ID = 475
   9.375948 1  1dc             Rx   d 8 FF FF FF FF 0C C8 C8 6F   Length = 0 BitCount = 0 ID = 476
   9.378541 1  1da             Rx   d 8 AE 00 00 00 00 00 01 C5   Length = 0 BitCount = 0 ID = 474
   9.385745 1  1db             Rx   d 8 FF A0 FF C6 7F 00 01 A0   Length = 0 BitCount = 0 ID = 475
   9.385975 1  1dc             Rx   d 8 FF FF FF FF 01 1C E5 62   Length = 0 BitCount = 0 ID = 476
   9.388539 1  1da             Rx   d 8 B1 00 00 00 00 00 02 92   Length = 0 BitCount = 0 ID = 474
   9.395741 1  1db             Rx   d 8 FF A0 FF C6 7F 00 02 AA   Length = 0 BitCount = 0 ID = 475
   9.395933 1  1dc             Rx   d 8 FF FF FF FF 05 58 C6 83   Length = 0 BitCount = 0 ID = 476
   9.398489 1  1da             Rx   d 8 B3 40 00 00 00 00 03 BB   Length = 0 BitCount = 0 ID = 474
   9.405740 1  1db             Rx   d 8 FF A0 FF C6 7F 00 03 2F   Length = 0 BitCount = 0 ID = 475
   9.405934 1  1dc             Rx   d 8 FF FF FF FF 08 C0 C3 13   Length = 0 BitCount = 0 ID = 476
   9.408515 1  1da             Rx   d 8 B4 40 00 00 00 00 00 A4   Length = 0 BitCount = 0 ID = 474
   9.415741 1  1db             Rx   d 8 FF A0 FF C6 7F 00 00 25   Length = 0 BitCount = 0 ID = 475
   9.415939 1  1dc             Rx   d 8 FF FF FF FF 0C C8 C8 6F   Length = 0 BitCount = 0 ID = 476
   9.418521 1  1da             Rx   d 8 B5 00 00 00 00 00 01 84   Length = 0 BitCount = 0 ID = 474
   9.418741 1  55a             Rx   d 8 00 3B 3B 00 5F 00 7A C8   Length = 0 BitCount = 0 ID = 1370
   9.426045 1  1db             Rx   d 8 FF A0 FF C6 7F 00 01 A0   Length = 0 BitCount = 0 ID = 475
   9.426185 1  1dc             Rx   d 8 FF FF FF FF 01 1C E5 62   Length = 0 BitCount = 0 ID = 476
   9.426435 1  55b             Rx   d 8 A5 00 AA 00 FF C0 10 91   Length = 0 BitCount = 0 ID = 1371
   9.426769 1  5bc             Rx   d 8 FF C0 FF FF A4 03 FF FF   Length = 0 BitCount = 0 ID = 1468
   9.428623 1  1da             Rx   d 8 B6 00 00 00 00 00 02 87   Length = 0 BitCount = 0 ID = 474
   9.429875 1  390             Rx   d 8 04 00 00 00 00 80 21 D8   Length = 0 BitCount = 0 ID = 912
   9.430150 1  393             Rx   d 8 00 10 00 00 20 00 00 13   Length = 0 BitCount = 0 ID = 915
   9.435825 1  1db             Rx   d 8 FF C0 FF C6 7F 00 02 59   Length = 0 BitCount = 0 ID = 475
   9.435934 1  1dc             Rx   d 8 FF FF FF FF 05 58 C6 83   Length = 0 BitCount = 0 ID = 476
   9.438509 1  1da             Rx   d 8 B7 40 00 00 00 00 03 A7   Length = 0 BitCount = 0 ID = 474
   9.442310 1  55b             Rx   d 8 A4 40 AA 00 DF C0 12 1A   Length = 0 BitCount = 0 ID = 1371
   9.442531 1  59e             Rx   d 8 00 00 0C 76 18 00 00 00   Length = 0 BitCount = 0 ID = 1438
   9.442819 1  5bc             Rx   d 8 3D 80 F0 64 B0 01 00 32   Length = 0 BitCount = 0 ID = 1468
   9.445708 1  1db             Rx   d 8 FF C0 FF C6 7F 00 03 DC   Length = 0 BitCount = 0 ID = 475
   9.445921 1  1dc             Rx   d 8 FF FF FF FF 08 C0 C3 13   Length = 0 BitCount = 0 ID = 476
   9.448589 1  1da             Rx   d 8 B7 40 00 00 00 00 00 AD   Length = 0 BitCount = 0 ID = 474
   9.455819 1  1db             Rx   d 8 FF E0 FF C6 7F 00 00 87   Length = 0 BitCount = 0 ID = 475
   9.455960 1  1dc             Rx   d 8 FF FF FF FF 0C C8 C8 6F   Length = 0 BitCount = 0 ID = 476
   9.458545 1  1da             Rx   d 8 B8 00 00 00 00 00 01 A7   Length = 0 BitCount = 0 ID = 474
   9.465811 1  1db             Rx   d 8 FF E0 FF E7 7F 00 01 5B   Length = 0 BitCount = 0 ID = 475
   9.465914 1  1dc             Rx   d 8 FF FF FF FF 01 1C E5 62   Length = 0 BitCount = 0 ID = 476
   9.468570 1  1da             Rx   d 8 B8 00 00 00 00 00 02 AD   Length = 0 BitCount = 0 ID = 474
   9.475714 1  1db             Rx   d 8 00 00 FF E7 7F 00 02 11   Length = 0 BitCount = 0 ID = 475
   9.475912 1  1dc             Rx   d 8 FF FF FF FF 05 58 C6 83   Length = 0 BitCount = 0 ID = 476
   9.478490 1  1da             Rx   d 8 B8 40 00 00 00 00 03 8A   Length = 0 BitCount = 0 ID = 474
   9.485745 1  1db             Rx   d 8 00 00 FF E7 7F 00 03 94   Length = 0 BitCount = 0 ID = 475
   9.485909 1  1dc             Rx   d 8 FF FF FF FF 08 C0 C3 13   Length = 0 BitCount = 0 ID = 476
   9.488513 1  1da             Rx   d 8 B8 40 00 00 00 00 00 80   Length = 0 BitCount = 0 ID = 474
   9.495715 1  1db             Rx   d 8 00 00 FF E7 7F 00 00 9E   Length = 0 BitCount = 0 ID = 475
   9.495911 1  1dc             Rx   d 8 FF FF FF FF 0C C8 C8 6F   Length = 0 BitCount = 0 ID = 476
   9.498494 1  1da             Rx   d 8 B9 00 00 00 00 00 01 A0   Length = 0 BitCount = 0 ID = 474
   9.505737 1  1db             Rx   d 8 00 20 FF E7 7F 00 01 4A   Length = 0 BitCount = 0 ID = 475
   9.505904 1  1dc             Rx   d 8 FF FF FF FF 01 1C E5 62   Length = 0 BitCount = 0 ID = 476
   9.508530 1  1da             Rx   d 8 B9 00 00 00 00 00 02 AA   Length = 0 BitCount = 0 ID = 474
   9.515870 1  1db             Rx   d 8 00 20 FF E7 7F 00 02 40   Length = 0 BitCount = 0 ID = 475
   9.515954 1  1dc             Rx   d 8 FF FF FF FF 05 58 C6 83   Length = 0 BitCount = 0 ID = 476
   9.518519 1  1da             Rx   d 8 B9 40 00 00 00 00 03 8D   Length = 0 BitCount = 0 ID = 474
   9.518722 1  55a             Rx   d 8 00 3B 3B 00 5F 00 7A C8   Length = 0 BitCount = 0 ID = 1370
   9.525966 1  1db             Rx   d 8 00 20 FF E7 7F 00 03 C5   Length = 0 BitCount = 0 ID = 475
   9.526145 1  1dc             Rx   d 8 FF FF FF FF 08 C0 C3 13   Length = 0 BitCount = 0 ID = 476
   9.526423 1  55b             Rx   d 8 A5 00 AA 00 FF C0 11 14   Length = 0 BitCount = 0 ID = 1371
   9.526627 1  5bc             Rx   d 8 5D C0 D7 64 A5 10 1F FF   Length = 0 BitCount = 0 ID = 1468
   9.528482 1  1da             Rx   d 8 B9 40 00 00 00 00 00 87   Length = 0 BitCount = 0 ID = 474
   9.529952 1  390             Rx   d 8 04 00 00 00 00 80 21 E9   Length = 0 BitCount = 0 ID = 912
   9.530219 1  393             Rx   d 8 00 10 00 00 20 00 00 24   Length = 0 BitCount = 0 ID = 915
   9.535796 1  1db             Rx   d 8 00 20 FF E7 7F 00 00 CF   Length = 0 BitCount = 0 ID = 475
   9.535938 1  1dc             Rx   d 8 FF FF FF FF 0C C8 C8 6F   Length = 0 BitCount = 0 ID = 476
   9.538563 1  1da             Rx   d 8 B9 00 00 00 00 00 01 A0   Length = 0 BitCount = 0 ID = 474
   9.542319 1  55b             Rx   d 8 A4 40 AA 00 DF C0 13 9F   Length = 0 BitCount = 0 ID = 1371
   9.542539 1  59e             Rx   d 8 00 00 0C 76 18 00 00 00   Length = 0 BitCount = 0 ID = 1438
   9.542823 1  5bc             Rx   d 8 3D 80 F0 64 B0 01 00 32   Length = 0 BitCount = 0 ID = 1468
   9.545718 1  1db             Rx   d 8 00 20 FF E7 7F 00 01 4A   Length = 0 BitCount = 0 ID = 475
   9.545932 1  1dc             Rx   d 8 FF FF FF FF 01 1C E5 62   Length = 0 BitCount = 0 ID = 476
   9.548505 1  1da             Rx   d 8 B9 00 00 00 00 00 02 AA   Length = 0 BitCount = 0 ID = 474
   9.555799 1  1db             Rx   d 8 00 40 FF E7 7F 00 02 B3   Length = 0 BitCount = 0 ID = 475
   9.555935 1  1dc             Rx   d 8 FF FF FF FF 05 58 C6 83   Length = 0 BitCount = 0 ID = 476
   9.558525 1  1da             Rx   d 8 B9 40 00 00 00 00 03 8D   Length = 0 BitCount = 0 ID = 474
   9.565817 1  1db             Rx   d 8 00 40 FF E7 7F 00 03 36   Length = 0 BitCount = 0 ID = 475
   9.565956 1  1dc             Rx   d 8 FF FF FF FF 08 C0 C3 13   Length = 0 BitCount = 0 ID = 476
   9.568543 1  1da             Rx   d 8 B9 40 00 00 00 00 00 87   Length = 0 BitCount = 0 ID = 474
   9.575768 1  1db             Rx   d 8 00 40 FF E7 7F 00 00 3C   Length = 0 BitCount = 0 ID = 475
   9.575934 1  1dc             Rx   d 8 FF FF FF FF 0C C8 C8 6F   Length = 0 BitCount = 0 ID = 476
   9.578483 1  1da             Rx   d 8 B9 00 00 00 00 00 81 29   Length = 0 BitCount = 0 ID = 474
   9.585732 1  1db             Rx   d 8 00 40 FF E7 7F 00 01 B9   Length = 0 BitCount = 0 ID = 475
   9.585929 1  1dc             Rx   d 8 FF FF FF FF 01 1C E5 62   Length = 0 BitCount = 0 ID = 476
   9.588504 1  1da             Rx   d 8 B9 00 00 00 00 00 82 23   Length = 0 BitCount = 0 ID = 474
   9.595748 1  1db             Rx   d 8 00 40 FF EF 7F 00 02 03   Length = 0 BitCount = 0 ID = 475
   9.595919 1  1dc             Rx   d 8 FF FF FF FF 05 58 C6 83   Length = 0 BitCount = 0 ID = 476
   9.598438 1  1da             Rx   d 8 B9 40 00 00 00 00 83 04   Length = 0 BitCount = 0 ID = 474
   9.605746 1  1db             Rx   d 8 00 40 FF EF 7F 00 03 86   Length = 0 BitCount = 0 ID = 475
   9.605917 1  1dc             Rx   d 8 FF FF FF FF 08 C0 C3 13   Length = 0 BitCount = 0 ID = 476
   9.608502 1  1da             Rx   d 8 B9 40 00 00 00 00 80 0E   Length = 0 BitCount = 0 ID = 474
   9.615851 1  1db             Rx   d 8 00 40 FF EF 7F 00 00 8C   Length = 0 BitCount = 0 ID = 475
   9.615939 1  1dc             Rx   d 8 FF FF FF FF 0C C8 C8 6F   Length = 0 BitCount = 0 ID = 476
   9.618508 1  1da             Rx   d 8 B9 00 00 00 00 00 81 29   Length = 0 BitCount = 0 ID = 474
   9.618718 1  55a             Rx   d 8 00 3B 3B 00 5F 00 82 D0   Length = 0 BitCount = 0 ID = 1370
   9.625977 1  1db             Rx   d 8 00 40 FF EF 7F 00 01 09   Length = 0 BitCount = 0 ID = 475
   9.626114 1  1dc             Rx   d 8 FF FF FF FF 01 1C E5 62   Length = 0 BitCount = 0 ID = 476
   9.626405 1  55b             Rx   d 8 A5 00 AA 00 FF C0 12 1E   Length = 0 BitCount = 0 ID = 1371
   9.626635 1  5bc             Rx   d 8 FF C0 D7 64 A5 00 BF FF   Length = 0 BitCount = 0 ID = 1468
   9.628450 1  1da             Rx   d 8 B9 00 00 00 00 00 82 23   Length = 0 BitCount = 0 ID = 474
   9.630071 1  390             Rx   d 8 04 00 00 00 00 80 21 FA   Length = 0 BitCount = 0 ID = 912
   9.630351 1  393             Rx   d 8 00 10 00 00 20 00 00 35   Length = 0 BitCount = 0 ID = 915
   9.635772 1  1db             Rx   d 8 00 40 FF EF 7F 00 02 03   Length = 0 BitCount = 0 ID = 475
   9.635931 1  1dc             Rx   d 8 FF FF FF FF 05 58 C6 83   Length = 0 BitCount = 0 ID = 476
   9.638543 1  1da             Rx   d 8 B9 40 00 00 00 00 83 04   Length = 0 BitCount = 0 ID = 474
   9.642328 1  55b             Rx   d 8 A4 40 AA 00 DF C0 10 95   Length = 0 BitCount = 0 ID = 1371
   9.642545 1  59e             Rx   d 8 00 00 0C 76 18 00 00 00   Length = 0 BitCount = 0 ID = 1438
   9.642826 1  5bc             Rx   d 8 3D 80 F0 64 B0 01 00 32   Length = 0 BitCount = 0 ID = 1468
   9.645710 1  1db             Rx   d 8 00 40 FF EF 7F 00 03 86   Length = 0 BitCount = 0 ID = 475
   9.645928 1  1dc             Rx   d 8 FF FF FF FF 08 C0 C3 13   Length = 0 BitCount = 0 ID = 476
   9.648483 1  1da             Rx   d 8 B9 40 00 00 00 00 80 0E   Length = 0 BitCount = 0 ID = 474
   9.655814 1  1db             Rx   d 8 00 60 FF EF 7F 00 00 DD   Length = 0 BitCount = 0 ID = 475
   9.655955 1  1dc             Rx   d 8 FF FF FF FF 0C C8 C8 6F   Length = 0 BitCount = 0 ID = 476
   9.658508 1  1da             Rx   d 8 B9 00 00 00 00 00 81 29   Length = 0 BitCount = 0 ID = 474
   9.665848 1  1db             Rx   d 8 00 60 FF EF 7F 00 01 58   Length = 0 BitCount = 0 ID = 475
   9.665941 1  1dc             Rx   d 8 FF FF FF FF 01 1C E5 62   Length = 0 BitCount = 0 ID = 476
   9.668511 1  1da             Rx   d 8 B9 00 00 00 00 00 82 23   Length = 0 BitCount = 0 ID = 474
   9.675719 1  1db             Rx   d 8 00 60 FF EF 7F 00 02 52   Length = 0 BitCount = 0 ID = 475
   9.675919 1  1dc             Rx   d 8 FF FF FF FF 05 58 C6 83   Length = 0 BitCount = 0 ID = 476
   9.678454 1  1da             Rx   d 8 B9 40 00 00 00 00 83 04   Length = 0 BitCount = 0 ID = 474
   9.685761 1  1db             Rx   d 8 00 60 FF EF 7F 00 03 D7   Length = 0 BitCount = 0 ID = 475
   9.685894 1  1dc             Rx   d 8 FF FF FF FF 08 C0 C3 13   Length = 0 BitCount = 0 ID = 476
   9.688474 1  1da             Rx   d 8 B9 40 00 00 00 00 80 0E   Length = 0 BitCount = 0 ID = 474
   9.695730 1  1db             Rx   d 8 00 60 FF EF 7F 00 00 DD   Length = 0 BitCount = 0 ID = 475
   9.695887 1  1dc             Rx   d 8 FF FF FF FF 0C C8 C8 6F   Length = 0 BitCount = 0 ID = 476
   9.698448 1  1da             Rx   d 8 B9 00 00 00 00 00 81 29   Length = 0 BitCount = 0 ID = 474
   9.705831 1  1db             Rx   d 8 00 60 FF EF 7F 00 01 58   Length = 0 BitCount = 0 ID = 475
   9.705916 1  1dc             Rx   d 8 FF FF FF FF 01 1C E5 62   Length = 0 BitCount = 0 ID = 476
   9.708503 1  1da             Rx   d 8 B9 00 00 00 00 00 82 23   Length = 0 BitCount = 0 ID = 474
   9.715858 1  1db             Rx   d 8 00 60 FF EF 7F 00 02 52   Length = 0 BitCount = 0 ID = 475
   9.715883 1  1dc             Rx   d 8 FF FF FF FF 05 58 C6 83   Length = 0 BitCount = 0 ID = 476
   9.718503 1  1da             Rx   d 8 B9 40 00 00 00 00 83 04   Length = 0 BitCount = 0 ID = 474
   9.718727 1  55a             Rx   d 8 00 3B 3B 00 5F 00 82 D0   Length = 0 BitCount = 0 ID = 1370
   9.725949 1  1db             Rx   d 8 00 60 FF EF 7F 00 03 D7   Length = 0 BitCount = 0 ID = 475
   9.726147 1  1dc             Rx   d 8 FF FF FF FF 08 C0 C3 13   Length = 0 BitCount = 0 ID = 476
   9.726448 1  55b             Rx   d 8 A5 00 AA 00 FF C0 13 9B   Length = 0 BitCount = 0 ID = 1371
   9.726613 1  5bc             Rx   d 8 5D C0 D7 64 A5 11 1F FF   Length = 0 BitCount = 0 ID = 1468
   9.728541 1  1da             Rx   d 8 B9 40 00 00 00 00 80 0E   Length = 0 BitCount = 0 ID = 474
   9.730226 1  390             Rx   d 8 04 00 00 00 00 80 21 C7   Length = 0 BitCount = 0 ID = 912
   9.730425 1  393             Rx   d 8 00 10 00 00 20 00 00 02   Length = 0 BitCount = 0 ID = 915
   9.735865 1  1db             Rx   d 8 00 60 FF EF 7F 00 00 DD   Length = 0 BitCount = 0 ID = 475
   9.735946 1  1dc             Rx   d 8 FF FF FF FF 0C C8 C8 6F   Length = 0 BitCount = 0 ID = 476
   9.738522 1  1da             Rx   d 8 B9 00 00 00 00 00 81 29   Length = 0 BitCount = 0 ID = 474
   9.742342 1  55b             Rx   d 8 A4 40 AA 00 DF C0 11 10   Length = 0 BitCount = 0 ID = 1371
   9.742560 1  59e             Rx   d 8 00 00 0C 76 18 00 00 00   Length = 0 BitCount = 0 ID = 1438
   9.742785 1  5bc             Rx   d 8 3D 80 F0 64 B0 01 00 32   Length = 0 BitCount = 0 ID = 1468
   9.745803 1  1db             Rx   d 8 00 60 FF EF 7F 00 01 58   Length = 0 BitCount = 0 ID = 475
   9.745845 1  1dc             Rx   d 8 FF FF FF FF 01 1C E5 62   Length = 0 BitCount = 0 ID = 476
   9.748576 1  1da             Rx   d 8 B9 00 00 00 00 00 82 23   Length = 0 BitCount = 0 ID = 474
   9.755868 1  1db             Rx   d 8 00 60 FF EF 7F 00 02 52   Length = 0 BitCount = 0 ID = 475
   9.755893 1  1dc             Rx   d 8 FF FF FF FF 05 58 C6 83   Length = 0 BitCount = 0 ID = 476
   9.758461 1  1da             Rx   d 8 B9 40 00 00 00 00 83 04   Length = 0 BitCount = 0 ID = 474
   9.765847 1  1db             Rx   d 8 00 60 FF EF 7F 00 03 D7   Length = 0 BitCount = 0 ID = 475
   9.765867 1  1dc             Rx   d 8 FF FF FF FF 08 C0 C3 13   Length = 0 BitCount = 0 ID = 476
   9.768501 1  1da             Rx   d 8 B9 40 00 00 00 00 80 0E   Length = 0 BitCount = 0 ID = 474
   9.775757 1  1db             Rx   d 8 00 60 FF EF 7F 00 00 DD   Length = 0 BitCount = 0 ID = 475
   9.775864 1  1dc             Rx   d 8 FF FF FF FF 0C C8 C8 6F   Length = 0 BitCount = 0 ID = 476
   9.778473 1  1da             Rx   d 8 B9 00 00 00 00 00 81 29   Length = 0 BitCount = 0 ID = 474
   9.785730 1  1db             Rx   d 8 00 60 FF EF 7F 00 01 58   Length = 0 BitCount = 0 ID = 475
   9.785885 1  1dc             Rx   d 8 FF FF FF FF 01 1C E5 62   Length = 0 BitCount = 0 ID = 476
   9.788431 1  1da             Rx   d 8 B9 00 00 00 00 00 82 23   Length = 0 BitCount = 0 ID = 474
   9.795665 1  1db             Rx   d 8 00 60 FF EF 7F 00 02 52   Length = 0 BitCount = 0 ID = 475
   9.795912 1  1dc             Rx   d 8 FF FF FF FF 05 58 C6 83   Length = 0 BitCount = 0 ID = 476
   9.798433 1  1da             Rx   d 8 B9 40 00 00 00 00 83 04   Length = 0 BitCount = 0 ID = 474
   9.805657 1  1db             Rx   d 8 00 60 FF EF 7F 00 03 D7   Length = 0 BitCount = 0 ID = 475
   9.805906 1  1dc             Rx   d 8 FF FF FF FF 08 C0 C3 13   Length = 0 BitCount = 0 ID = 476
   9.808427 1  1da             Rx   d 8 B9 40 00 00 00 00 80 0E   Length = 0 BitCount = 0 ID = 474
   9.815858 1  1db             Rx   d 8 00 60 FF EF 7F 00 00 DD   Length = 0 BitCount = 0 ID = 475
   9.815886 1  1dc             Rx   d 8 FF FF FF FF 0C C8 C8 6F   Length = 0 BitCount = 0 ID = 476
   9.818507 1  1da             Rx   d 8 B9 00 00 00 00 00 81 29   Length = 0 BitCount = 0 ID = 474
   9.818651 1  55a             Rx   d 8 00 3B 3B 00 5F 00 82 D0   Length = 0 BitCount = 0 ID = 1370
   9.825928 1  1db             Rx   d 8 00 60 FF EF 7F 00 01 58   Length = 0 BitCount = 0 ID = 475
   9.826195 1  1dc             Rx   d 8 FF FF FF FF 01 1C E5 62   Length = 0 BitCount = 0 ID = 476
   9.826408 1  55b             Rx   d 8 A5 00 AA 00 FF C0 10 91   Length = 0 BitCount = 0 ID = 1371
   9.826641 1  5bc             Rx   d 8 FF C0 D7 64 A5 01 7F FF   Length = 0 BitCount = 0 ID = 1468
   9.828532 1  1da             Rx   d 8 B9 00 00 00 00 00 82 23   Length = 0 BitCount = 0 ID = 474
   9.830367 1  390             Rx   d 8 04 00 00 00 00 80 21 D8   Length = 0 BitCount = 0 ID = 912
   9.830538 1  393             Rx   d 8 00 10 00 00 20 00 00 13   Length = 0 BitCount = 0 ID = 915
   9.835899 1  1db             Rx   d 8 00 40 FF EF 7F 00 02 03   Length = 0 BitCount = 0 ID = 475
   9.836063 1  1dc             Rx   d 8 FF FF FF FF 05 58 C6 83   Length = 0 BitCount = 0 ID = 476
   9.836347 1  59e             Rx   d 8 00 00 0F 3F F8 00 00 00   Length = 0 BitCount = 0 ID = 1438
   9.836563 1  5c0             Rx   d 8 40 50 76 00 77 00 1E 00   Length = 0 BitCount = 0 ID = 1472
   9.838506 1  1da             Rx   d 8 B9 40 00 00 00 00 83 04   Length = 0 BitCount = 0 ID = 474
   9.842350 1  55b             Rx   d 8 A4 40 AA 00 DF C0 12 1A   Length = 0 BitCount = 0 ID = 1371
   9.842519 1  59e             Rx   d 8 00 00 0C 76 18 00 00 00   Length = 0 BitCount = 0 ID = 1438
   9.842767 1  5bc             Rx   d 8 3D 80 F0 64 B0 01 00 32   Length = 0 BitCount = 0 ID = 1468
   9.845714 1  1db             Rx   d 8 00 40 FF EF 7F 00 03 86   Length = 0 BitCount = 0 ID = 475
   9.845948 1  1dc             Rx   d 8 FF FF FF FF 08 C0 C3 13   Length = 0 BitCount = 0 ID = 476
   9.848513 1  1da             Rx   d 8 B9 40 00 00 00 00 80 0E   Length = 0 BitCount = 0 ID = 474
   9.855758 1  1db             Rx   d 8 00 40 FF EF 7F 00 00 8C   Length = 0 BitCount = 0 ID = 475
   9.855915 1  1dc             Rx   d 8 FF FF FF FF 0C C8 C8 6F   Length = 0 BitCount = 0 ID = 476
   9.858460 1  1da             Rx   d 8 B9 00 00 00 00 00 81 29   Length = 0 BitCount = 0 ID = 474
   9.865723 1  1db             Rx   d 8 00 40 FF EF 7F 00 01 09   Length = 0 BitCount = 0 ID = 475
   9.865922 1  1dc             Rx   d 8 FF FF FF FF 01 1C E5 62   Length = 0 BitCount = 0 ID = 476
   9.868506 1  1da             Rx   d 8 B9 00 00 00 00 00 82 23   Length = 0 BitCount = 0 ID = 474
   9.875674 1  1db             Rx   d 8 00 40 FF EF 7F 00 02 03   Length = 0 BitCount = 0 ID = 475
   9.875936 1  1dc             Rx   d 8 FF FF FF FF 05 58 C6 83   Length = 0 BitCount = 0 ID = 476
   9.878466 1  1da             Rx   d 8 B9 40 00 00 00 00 83 04   Length = 0 BitCount = 0 ID = 474
   9.885682 1  1db             Rx   d 8 00 40 FF EF 7F 00 03 86   Length = 0 BitCount = 0 ID = 475
   9.885900 1  1dc             Rx   d 8 FF FF FF FF 08 C0 C3 13   Length = 0 BitCount = 0 ID = 476
   9.888413 1  1da             Rx   d 8 B9 40 00 00 00 00 80 0E   Length = 0 BitCount = 0 ID = 474
   9.895673 1  1db             Rx   d 8 00 40 FF EF 7F 00 00 8C   Length = 0 BitCount = 0 ID = 475
   9.895869 1  1dc             Rx   d 8 FF FF FF FF 0C C8 C8 6F   Length = 0 BitCount = 0 ID = 476
   9.898408 1  1da             Rx   d 8 B9 00 00 00 00 00 81 29   Length = 0 BitCount = 0 ID = 474
   9.905677 1  1db             Rx   d 8 00 40 FF EF 7F 00 01 09   Length = 0 BitCount = 0 ID = 475
   9.905926 1  1dc             Rx   d 8 FF FF FF FF 01 1C E5 62   Length = 0 BitCount = 0 ID = 476
   9.908427 1  1da             Rx   d 8 B9 00 00 00 00 00 82 23   Length = 0 BitCount = 0 ID = 474
   9.915654 1  1db             Rx   d 8 00 40 FF EF 7F 00 02 03   Length = 0 BitCount = 0 ID = 475
   9.915854 1  1dc             Rx   d 8 FF FF FF FF 05 58 C6 83   Length = 0 BitCount = 0 ID = 476
   9.918427 1  1da             Rx   d 8 B9 40 00 00 00 00 83 04   Length = 0 BitCount = 0 ID = 474
   9.918644 1  55a             Rx   d 8 00 3B 3B 00 5F 00 82 D0   Length = 0 BitCount = 0 ID = 1370
   9.925914 1  1db             Rx   d 8 00 40 FF EF 7F 00 03 86   Length = 0 BitCount = 0 ID = 475
   9.926160 1  1dc             Rx   d 8 FF FF FF FF 08 C0 C3 13   Length = 0 BitCount = 0 ID = 476
   9.926356 1  55b             Rx   d 8 A5 00 AA 00 FF C0 11 14   Length = 0 BitCount = 0 ID = 1371
   9.926638 1  5bc             Rx   d 8 5D C0 FF 64 A4 12 5F FF   Length = 0 BitCount = 0 ID = 1468
   9.928431 1  1da             Rx   d 8 B9 40 00 00 00 00 80 0E   Length = 0 BitCount = 0 ID = 474
   9.930411 1  390             Rx   d 8 04 00 00 00 00 80 21 E9   Length = 0 BitCount = 0 ID = 912
   9.930663 1  393             Rx   d 8 00 10 00 00 20 00 00 24   Length = 0 BitCount = 0 ID = 915
   9.935682 1  1db             Rx   d 8 00 40 FF EF 7F 00 00 8C   Length = 0 BitCount = 0 ID = 475
   9.935930 1  1dc             Rx   d 8 FF FF FF FF 0C C8 C8 6F   Length = 0 BitCount = 0 ID = 476
   9.938431 1  1da             Rx   d 8 B9 00 00 00 00 00 81 29   Length = 0 BitCount = 0 ID = 474
   9.942339 1  55b             Rx   d 8 A4 40 AA 00 DF C0 13 9F   Length = 0 BitCount = 0 ID = 1371
   9.942588 1  59e             Rx   d 8 00 00 0C 76 18 00 00 00   Length = 0 BitCount = 0 ID = 1438
   9.942834 1  5bc             Rx   d 8 3D 80 F0 64 B0 01 00 32   Length = 0 BitCount = 0 ID = 1468
   9.945733 1  1db             Rx   d 8 00 40 B9 AF 7F 00 01 E7   Length = 0 BitCount = 0 ID = 475
   9.945925 1  1dc             Rx   d 8 FF FF FF FF 01 1C E5 62   Length = 0 BitCount = 0 ID = 476
   9.948466 1  1da             Rx   d 8 B9 00 00 00 00 00 82 23   Length = 0 BitCount = 0 ID = 474
   9.955755 1  1db             Rx   d 8 00 40 B9 AF 7F 00 02 ED   Length = 0 BitCount = 0 ID = 475
   9.955916 1  1dc             Rx   d 8 FF FF FF FF 05 58 C6 83   Length = 0 BitCount = 0 ID = 476
   9.958494 1  1da             Rx   d 8 B9 40 00 00 00 00 83 04   Length = 0 BitCount = 0 ID = 474
   9.965696 1  1db             Rx   d 8 00 40 B9 AF 7F 00 03 68   Length = 0 BitCount = 0 ID = 475
   9.965921 1  1dc             Rx   d 8 FF FF FF FF 08 C0 C3 13   Length = 0 BitCount = 0 ID = 476
   9.968491 1  1da             Rx   d 8 B9 40 00 00 00 00 80 0E   Length = 0 BitCount = 0 ID = 474
   9.975683 1  1db             Rx   d 8 00 60 B9 AF 7F 00 00 33   Length = 0 BitCount = 0 ID = 475
   9.975841 1  1dc             Rx   d 8 FF FF FF FF 0C C8 C8 6F   Length = 0 BitCount = 0 ID = 476
   9.978470 1  1da             Rx   d 8 B9 00 00 00 00 00 81 29   Length = 0 BitCount = 0 ID = 474
   9.985711 1  1db             Rx   d 8 00 60 B9 AF 7F 00 01 B6   Length = 0 BitCount = 0 ID = 475
   9.985921 1  1dc             Rx   d 8 FF FF FF FF 01 1C E5 62   Length = 0 BitCount = 0 ID = 476
   9.988483 1  1da             Rx   d 8 B9 00 00 00 00 00 82 23   Length = 0 BitCount = 0 ID = 474
   9.995688 1  1db             Rx   d 8 00 60 B9 AF 7F 00 02 BC   Length = 0 BitCount = 0 ID = 475
   9.995863 1  1dc             Rx   d 8 FF FF FF FF 05 58 C6 83   Length = 0 BitCount = 0 ID = 476
   9.998386 1  1da             Rx   d 8 B9 40 00 00 00 00 83 04   Length = 0 BitCount = 0 ID = 474
  10.005660 1  1db             Rx   d 8 00 60 B9 AF 7F 00 03 39   Length = 0 BitCount = 0 ID = 475
  10.005862 1  1dc             Rx   d 8 FF FF FF FF 08 C0 C3 13   Length = 0 BitCount = 0 ID = 476
  10.008369 1  1da             Rx   d 8 B9 40 00 00 00 00 80 0E   Length = 0 BitCount = 0 ID = 474
  10.015644 1  1db             Rx   d 8 00 60 B9 AF 7F 00 00 33   Length = 0 BitCount = 0 ID = 475
  10.015839 1  1dc             Rx   d 8 FF FF FF FF 0C C8 C8 6F   Length = 0 BitCount = 0 ID = 476
  10.018342 1  1da             Rx   d 8 B9 00 00 00 00 00 81 29   Length = 0 BitCount = 0 ID = 474
  10.018587 1  55a             Rx   d 8 00 3B 3B 00 5F 00 82 D0   Length = 0 BitCount = 0 ID = 1370
  10.025886 1  1db             Rx   d 8 00 60 B9 AF 7F 00 01 B6   Length = 0 BitCount = 0 ID = 475
  10.026078 1  1dc             Rx   d 8 FF FF FF FF 01 1C E5 62   Length = 0 BitCount = 0 ID = 476
  10.026359 1  55b             Rx   d 8 A5 00 AA 00 FF C0 12 1E   Length = 0 BitCount = 0 ID = 1371
  10.026583 1  5bc             Rx   d 8 FF C0 FF 64 A4 02 BF FF   Length = 0 BitCount = 0 ID = 1468
  10.028361 1  1da             Rx   d 8 B9 00 00 00 00 00 82 23   Length = 0 BitCount = 0 ID = 474
  10.030516 1  390             Rx   d 8 04 00 00 00 00 80 21 FA   Length = 0 BitCount = 0 ID = 912
  10.030723 1  393             Rx   d 8 00 10 00 00 20 00 00 35   Length = 0 BitCount = 0 ID = 915
  10.035686 1  1db             Rx   d 8 00 80 B9 AB 40 00 02 C2   Length = 0 BitCount = 0 ID = 475
  10.035884 1  1dc             Rx   d 8 6E 0A 3F FD 05 58 C6 9E   Length = 0 BitCount = 0 ID = 476
  10.038379 1  1da             Rx   d 8 B9 40 00 00 00 00 83 04   Length = 0 BitCount = 0 ID = 474
  10.042340 1  55b             Rx   d 8 A4 40 AA 00 DF C0 10 95   Length = 0 BitCount = 0 ID = 1371
  10.042533 1  59e             Rx   d 8 00 00 0C 76 18 00 00 00   Length = 0 BitCount = 0 ID = 1438
  10.042805 1  5bc             Rx   d 8 3D 80 F0 64 B0 01 00 32   Length = 0 BitCount = 0 ID = 1468
  10.045760 1  1db             Rx   d 8 00 80 B9 AB 40 00 03 47   Length = 0 BitCount = 0 ID = 475
  10.045923 1  1dc             Rx   d 8 6E 0A 3F FD 08 C0 C3 0E   Length = 0 BitCount = 0 ID = 476
  10.048473 1  1da             Rx   d 8 B9 40 00 00 00 00 80 0E   Length = 0 BitCount = 0 ID = 474
  10.055695 1  1db             Rx   d 8 00 80 B9 AB 40 00 00 4D   Length = 0 BitCount = 0 ID = 475
  10.055852 1  1dc             Rx   d 8 6E 0A 3F FD 0C C8 C8 72   Length = 0 BitCount = 0 ID = 476
  10.058374 1  1da             Rx   d 8 B9 00 00 00 00 00 81 29   Length = 0 BitCount = 0 ID = 474
  10.065698 1  1db             Rx   d 8 00 80 B9 AB 40 00 01 C8   Length = 0 BitCount = 0 ID = 475
  10.065904 1  1dc             Rx   d 8 6E 0A 3F FD 01 1C E5 7F   Length = 0 BitCount = 0 ID = 476
  10.068442 1  1da             Rx   d 8 B9 00 00 00 00 00 82 23   Length = 0 BitCount = 0 ID = 474
  10.075686 1  1db             Rx   d 8 00 80 B9 AB 40 00 02 C2   Length = 0 BitCount = 0 ID = 475
  10.075868 1  1dc             Rx   d 8 6E 0A 3F FD 05 58 C6 9E   Length = 0 BitCount = 0 ID = 476
  10.078435 1  1da             Rx   d 8 B9 40 00 00 00 00 83 04   Length = 0 BitCount = 0 ID = 474
  10.085672 1  1db             Rx   d 8 00 80 B9 AB 40 00 03 47   Length = 0 BitCount = 0 ID = 475
  10.085898 1  1dc             Rx   d 8 6E 0A 3F FD 08 C0 C3 0E   Length = 0 BitCount = 0 ID = 476
  10.088445 1  1da             Rx   d 8 B9 40 00 00 00 00 80 0E   Length = 0 BitCount = 0 ID = 474
  10.095718 1  1db             Rx   d 8 00 80 B9 AB 40 00 00 4D   Length = 0 BitCount = 0 ID = 475
  10.095868 1  1dc             Rx   d 8 6E 0A 3F FD 0C C8 C8 72   Length = 0 BitCount = 0 ID = 476
  10.098448 1  1da             Rx   d 8 B9 00 00 00 00 00 81 29   Length = 0 BitCount = 0 ID = 474
  10.105688 1  1db             Rx   d 8 00 80 B9 AB 40 00 01 C8   Length = 0 BitCount = 0 ID = 475
  10.105866 1  1dc             Rx   d 8 6E 0A 3F FD 01 1C E5 7F   Length = 0 BitCount = 0 ID = 476
  10.108352 1  1da             Rx   d 8 B9 00 00 00 00 00 82 23   Length = 0 BitCount = 0 ID = 474
  10.115650 1  1db             Rx   d 8 00 80 B9 AB 40 00 02 C2   Length = 0 BitCount = 0 ID = 475
  10.115891 1  1dc             Rx   d 8 6E 0A 3F FD 05 58 C6 9E   Length = 0 BitCount = 0 ID = 476
  10.118367 1  1da             Rx   d 8 B9 40 00 00 00 00 83 04   Length = 0 BitCount = 0 ID = 474
  10.118585 1  55a             Rx   d 8 00 3B 3B 00 5F 00 82 D0   Length = 0 BitCount = 0 ID = 1370
  10.125887 1  1db             Rx   d 8 00 80 B9 AB 40 00 03 47   Length = 0 BitCount = 0 ID = 475
  10.126100 1  1dc             Rx   d 8 6E 0A 3F FD 08 C0 C3 0E   Length = 0 BitCount = 0 ID = 476
  10.126326 1  55b             Rx   d 8 9A 40 AA 00 FF C0 13 84   Length = 0 BitCount = 0 ID = 1371
  10.126580 1  5bc             Rx   d 8 5D C0 A0 64 A4 13 1F FF   Length = 0 BitCount = 0 ID = 1468
  10.128390 1  1da             Rx   d 8 B9 40 00 00 00 00 80 0E   Length = 0 BitCount = 0 ID = 474
  10.130615 1  390             Rx   d 8 04 00 00 00 00 80 21 C7   Length = 0 BitCount = 0 ID = 912
  10.130863 1  393             Rx   d 8 00 10 00 00 20 00 00 02   Length = 0 BitCount = 0 ID = 915
  10.135665 1  1db             Rx   d 8 00 80 B9 AB 40 00 00 4D   Length = 0 BitCount = 0 ID = 475
  10.135871 1  1dc             Rx   d 8 6E 0A 3F FD 0C C8 C8 72   Length = 0 BitCount = 0 ID = 476
  10.138369 1  1da             Rx   d 8 B9 00 00 00 00 00 81 29   Length = 0 BitCount = 0 ID = 474
  10.142308 1  55b             Rx   d 8 A4 40 AA 00 DF C0 11 10   Length = 0 BitCount = 0 ID = 1371
  10.142551 1  59e             Rx   d 8 00 00 0C 76 18 00 00 00   Length = 0 BitCount = 0 ID = 1438
  10.142765 1  5bc             Rx   d 8 3D 80 F0 64 B0 01 00 32   Length = 0 BitCount = 0 ID = 1468
  10.145734 1  1db             Rx   d 8 00 80 B9 AA 40 00 01 DE   Length = 0 BitCount = 0 ID = 475
  10.145928 1  1dc             Rx   d 8 6E 0A 3F FD 01 1C E5 7F   Length = 0 BitCount = 0 ID = 476
  10.148473 1  1da             Rx   d 8 B9 00 00 00 00 00 82 23   Length = 0 BitCount = 0 ID = 474
  10.155702 1  1db             Rx   d 8 00 80 B9 AA 40 00 02 D4   Length = 0 BitCount = 0 ID = 475
  10.155926 1  1dc             Rx   d 8 6E 0A 3F FD 05 58 C6 9E   Length = 0 BitCount = 0 ID = 476
  10.158369 1  1da             Rx   d 8 B9 40 00 00 00 00 83 04   Length = 0 BitCount = 0 ID = 474
  10.165753 1  1db             Rx   d 8 00 80 B9 AA 40 00 03 51   Length = 0 BitCount = 0 ID = 475
  10.165901 1  1dc             Rx   d 8 6E 0A 3F FD 08 C0 C3 0E   Length = 0 BitCount = 0 ID = 476
  10.168439 1  1da             Rx   d 8 B9 40 00 00 00 00 80 0E   Length = 0 BitCount = 0 ID = 474
  10.175657 1  1db             Rx   d 8 00 60 B9 AA 40 00 00 69   Length = 0 BitCount = 0 ID = 475
  10.175844 1  1dc             Rx   d 8 6E 0A 3F FD 0C C8 C8 72   Length = 0 BitCount = 0 ID = 476
  10.178440 1  1da             Rx   d 8 B9 00 00 00 00 00 81 29   Length = 0 BitCount = 0 ID = 474
  10.185698 1  1db             Rx   d 8 00 60 B9 AA 40 00 01 EC   Length = 0 BitCount = 0 ID = 475
  10.185894 1  1dc             Rx   d 8 6E 0A 3F FD 01 1C E5 7F   Length = 0 BitCount = 0 ID = 476
  10.188369 1  1da             Rx   d 8 B9 00 00 00 00 00 82 23   Length = 0 BitCount = 0 ID = 474
  10.195697 1  1db             Rx   d 8 00 60 B9 AA 40 00 02 E6   Length = 0 BitCount = 0 ID = 475
  10.195891 1  1dc             Rx   d 8 6E 0A 3F FD 05 58 C6 9E   Length = 0 BitCount = 0 ID = 476
  10.198455 1  1da             Rx   d 8 B9 40 00 00 00 00 83 04   Length = 0 BitCount = 0 ID = 474
  10.205740 1  1db             Rx   d 8 00 60 B9 AA 40 00 03 63   Length = 0 BitCount = 0 ID = 475
  10.205906 1  1dc             Rx   d 8 6E 0A 3F FD 08 C0 C3 0E   Length = 0 BitCount = 0 ID = 476
  10.208461 1  1da             Rx   d 8 B9 40 00 00 00 00 80 0E   Length = 0 BitCount = 0 ID = 474
  10.215674 1  1db             Rx   d 8 00 60 B9 AA 40 00 00 69   Length = 0 BitCount = 0 ID = 475
  10.215881 1  1dc             Rx   d 8 6E 0A 3F FD 0C C8 C8 72   Length = 0 BitCount = 0 ID = 476
  10.218357 1  1da             Rx   d 8 B9 00 00 00 00 00 81 29   Length = 0 BitCount = 0 ID = 474
  10.218568 1  55a             Rx   d 8 00 3B 3B 00 5F 00 82 D0   Length = 0 BitCount = 0 ID = 1370
  10.225899 1  1db             Rx   d 8 00 60 B9 AA 40 00 01 EC   Length = 0 BitCount = 0 ID = 475
  10.226080 1  1dc             Rx   d 8 6E 0A 3F FD 01 1C E5 7F   Length = 0 BitCount = 0 ID = 476
  10.226352 1  55b             Rx   d 8 9A 40 AA 00 FF C0 10 8E   Length = 0 BitCount = 0 ID = 1371
  10.226588 1  5bc             Rx   d 8 2F 40 A0 64 A4 00 1F FF   Length = 0 BitCount = 0 ID = 1468
  10.228390 1  1da             Rx   d 8 B9 00 00 00 00 00 82 23   Length = 0 BitCount = 0 ID = 474
  10.230766 1  390             Rx   d 8 04 00 00 00 00 80 21 D8   Length = 0 BitCount = 0 ID = 912
  10.230969 1  393             Rx   d 8 00 10 00 00 20 00 00 13   Length = 0 BitCount = 0 ID = 915
  10.235667 1  1db             Rx   d 8 00 60 B9 AA 40 00 02 E6   Length = 0 BitCount = 0 ID = 475
  10.235840 1  1dc             Rx   d 8 6E 0A 3F FD 05 58 C6 9E   Length = 0 BitCount = 0 ID = 476
  10.238367 1  1da             Rx   d 8 B9 40 00 00 00 00 83 04   Length = 0 BitCount = 0 ID = 474
  10.242308 1  55b             Rx   d 8 A4 40 AA 00 DF C0 12 1A   Length = 0 BitCount = 0 ID = 1371
  10.242552 1  59e             Rx   d 8 00 00 0C 76 18 00 00 00   Length = 0 BitCount = 0 ID = 1438
  10.242771 1  5bc             Rx   d 8 3D 80 F0 64 B0 01 00 32   Length = 0 BitCount = 0 ID = 1468
  10.245667 1  1db             Rx   d 8 00 60 B9 AA 40 00 03 63   Length = 0 BitCount = 0 ID = 475
  10.245891 1  1dc             Rx   d 8 6E 0A 3F FD 08 C0 C3 0E   Length = 0 BitCount = 0 ID = 476
  10.248366 1  1da             Rx   d 8 B9 40 00 00 00 00 80 0E   Length = 0 BitCount = 0 ID = 474
  10.255668 1  1db             Rx   d 8 00 60 B9 AA 40 00 00 69   Length = 0 BitCount = 0 ID = 475
  10.255868 1  1dc             Rx   d 8 6E 0A 3F FD 0C C8 C8 72   Length = 0 BitCount = 0 ID = 476
  10.258379 1  1da             Rx   d 8 B9 00 00 00 00 00 81 29   Length = 0 BitCount = 0 ID = 474
  10.265670 1  1db             Rx   d 8 00 60 B9 AA 40 00 01 EC   Length = 0 BitCount = 0 ID = 475
  10.265878 1  1dc             Rx   d 8 6E 0A 3F FD 01 1C E5 7F   Length = 0 BitCount = 0 ID = 476
  10.268345 1  1da             Rx   d 8 B9 00 00 00 00 00 82 23   Length = 0 BitCount = 0 ID = 474
  10.275664 1  1db             Rx   d 8 00 60 B9 AA 40 00 02 E6   Length = 0 BitCount = 0 ID = 475
  10.275839 1  1dc             Rx   d 8 6E 0A 3F FD 05 58 C6 9E   Length = 0 BitCount = 0 ID = 476
  10.278412 1  1da             Rx   d 8 B9 40 00 00 00 00 83 04   Length = 0 BitCount = 0 ID = 474
  10.285656 1  1db             Rx   d 8 00 60 B9 AA 40 00 03 63   Length = 0 BitCount = 0 ID = 475
  10.285904 1  1dc             Rx   d 8 6E 0A 3F FD 08 C0 C3 0E   Length = 0 BitCount = 0 ID = 476
  10.288412 1  1da             Rx   d 8 B9 40 00 00 00 00 80 0E   Length = 0 BitCount = 0 ID = 474
  10.295744 1  1db             Rx   d 8 00 60 B9 AA 40 00 00 69   Length = 0 BitCount = 0 ID = 475
  10.295905 1  1dc             Rx   d 8 6E 0A 3F FD 0C C8 C8 72   Length = 0 BitCount = 0 ID = 476
  10.298413 1  1da             Rx   d 8 B9 00 00 00 00 00 81 29   Length = 0 BitCount = 0 ID = 474
  10.305707 1  1db             Rx   d 8 00 60 B9 AA 40 00 01 EC   Length = 0 BitCount = 0 ID = 475
  10.305910 1  1dc             Rx   d 8 6E 0A 3F FD 01 1C E5 7F   Length = 0 BitCount = 0 ID = 476
  10.308440 1  1da             Rx   d 8 B9 00 00 00 00 00 82 23   Length = 0 BitCount = 0 ID = 474
  10.315769 1  1db             Rx   d 8 00 60 B9 AA 40 00 02 E6   Length = 0 BitCount = 0 ID = 475
  10.315867 1  1dc             Rx   d 8 6E 0A 3F FD 05 58 C6 9E   Length = 0 BitCount = 0 ID = 476
  10.318391 1  1da             Rx   d 8 B9 40 00 00 00 00 83 04   Length = 0 BitCount = 0 ID = 474
  10.318593 1  55a             Rx   d 8 00 3B 3B 00 5F 00 82 D0   Length = 0 BitCount = 0 ID = 1370
  10.325918 1  1db             Rx   d 8 00 60 B9 AA 40 00 03 63   Length = 0 BitCount = 0 ID = 475
  10.326114 1  1dc             Rx   d 8 6E 0A 3F FD 08 C0 C3 0E   Length = 0 BitCount = 0 ID = 476
  10.326329 1  55b             Rx   d 8 9A 40 AA 00 FF C0 11 0B   Length = 0 BitCount = 0 ID = 1371
  10.326583 1  5bc             Rx   d 8 5D C0 A0 64 A4 10 A0 96   Length = 0 BitCount = 0 ID = 1468
  10.328397 1  1da             Rx   d 8 B9 40 00 00 00 00 80 0E   Length = 0 BitCount = 0 ID = 474
  10.330878 1  390             Rx   d 8 04 00 00 00 00 80 21 E9   Length = 0 BitCount = 0 ID = 912
  10.331065 1  393             Rx   d 8 00 10 00 00 20 00 00 24   Length = 0 BitCount = 0 ID = 915
  10.335818 1  1db             Rx   d 8 00 60 B9 AA 40 00 00 69   Length = 0 BitCount = 0 ID = 475
  10.336007 1  1dc             Rx   d 8 6E 0A 3F FD 0C C8 C8 72   Length = 0 BitCount = 0 ID = 476
  10.336229 1  59e             Rx   d 8 00 00 0F 34 E0 00 00 00   Length = 0 BitCount = 0 ID = 1438
  10.336480 1  5c0             Rx   d 8 80 74 76 00 A7 C4 02 00   Length = 0 BitCount = 0 ID = 1472
  10.338300 1  1da             Rx   d 8 B9 00 00 00 00 00 81 29   Length = 0 BitCount = 0 ID = 474
  10.342309 1  55b             Rx   d 8 A4 40 AA 00 DF C0 13 9F   Length = 0 BitCount = 0 ID = 1371
  10.342575 1  59e             Rx   d 8 00 00 0C 76 18 00 00 00   Length = 0 BitCount = 0 ID = 1438
  10.342791 1  5bc             Rx   d 8 3D 80 F0 64 B0 01 00 32   Length = 0 BitCount = 0 ID = 1468
  10.345678 1  1db             Rx   d 8 00 40 B9 AA 40 00 01 BD   Length = 0 BitCount = 0 ID = 475
  10.345900 1  1dc             Rx   d 8 6E 0A 3F FD 01 1C E5 7F   Length = 0 BitCount = 0 ID = 476
  10.348345 1  1da             Rx   d 8 B9 00 00 00 00 00 82 23   Length = 0 BitCount = 0 ID = 474
  10.355646 1  1db             Rx   d 8 00 40 B9 AA 40 00 02 B7   Length = 0 BitCount = 0 ID = 475
  10.355860 1  1dc             Rx   d 8 6E 0A 3F FD 05 58 C6 9E   Length = 0 BitCount = 0 ID = 476
  10.358342 1  1da             Rx   d 8 B9 40 00 00 00 00 83 04   Length = 0 BitCount = 0 ID = 474
  10.365646 1  1db             Rx   d 8 00 40 B9 AA 40 00 03 32   Length = 0 BitCount = 0 ID = 475
  10.365896 1  1dc             Rx   d 8 6E 0A 3F FD 08 C0 C3 0E   Length = 0 BitCount = 0 ID = 476
  10.368346 1  1da             Rx   d 8 B9 40 00 00 00 00 80 0E   Length = 0 BitCount = 0 ID = 474
  10.375635 1  1db             Rx   d 8 00 40 B9 AA 40 00 00 38   Length = 0 BitCount = 0 ID = 475
  10.375884 1  1dc             Rx   d 8 6E 0A 3F FD 0C C8 C8 72   Length = 0 BitCount = 0 ID = 476
  10.378406 1  1da             Rx   d 8 B9 00 00 00 00 00 81 29   Length = 0 BitCount = 0 ID = 474
  10.385679 1  1db             Rx   d 8 00 40 B9 AA 40 00 01 BD   Length = 0 BitCount = 0 ID = 475
  10.385914 1  1dc             Rx   d 8 6E 0A 3F FD 01 1C E5 7F   Length = 0 BitCount = 0 ID = 476
  10.388398 1  1da             Rx   d 8 B9 00 00 00 00 00 82 23   Length = 0 BitCount = 0 ID = 474
  10.395722 1  1db             Rx   d 8 00 40 B9 AA 40 00 02 B7   Length = 0 BitCount = 0 ID = 475
  10.395912 1  1dc             Rx   d 8 6E 0A 3F FD 05 58 C6 9E   Length = 0 BitCount = 0 ID = 476
  10.398383 1  1da             Rx   d 8 B9 40 00 00 00 00 83 04   Length = 0 BitCount = 0 ID = 474
  10.405730 1  1db             Rx   d 8 00 40 B9 AA 40 00 03 32   Length = 0 BitCount = 0 ID = 475
  10.405910 1  1dc             Rx   d 8 6E 0A 3F FD 08 C0 C3 0E   Length = 0 BitCount = 0 ID = 476
  10.408397 1  1da             Rx   d 8 B9 40 00 00 00 00 80 0E   Length = 0 BitCount = 0 ID = 474
  10.415748 1  1db             Rx   d 8 00 40 B9 AA 40 00 00 38   Length = 0 BitCount = 0 ID = 475
  10.415855 1  1dc             Rx   d 8 6E 0A 3F FD 0C C8 C8 72   Length = 0 BitCount = 0 ID = 476
  10.418351 1  1da             Rx   d 8 B9 00 00 00 00 00 81 29   Length = 0 BitCount = 0 ID = 474
  10.418564 1  55a             Rx   d 8 00 3B 3B 00 5F 00 82 D0   Length = 0 BitCount = 0 ID = 1370
  10.425904 1  1db             Rx   d 8 00 40 B9 AA 40 00 01 BD   Length = 0 BitCount = 0 ID = 475
  10.426090 1  1dc             Rx   d 8 6E 0A 3F FD 01 1C E5 7F   Length = 0 BitCount = 0 ID = 476
  10.426367 1  55b             Rx   d 8 9A 40 AA 00 FF C0 12 01   Length = 0 BitCount = 0 ID = 1371
  10.426584 1  5bc             Rx   d 8 2F 40 D7 64 A5 01 00 D2   Length = 0 BitCount = 0 ID = 1468
  10.428407 1  1da             Rx   d 8 B9 00 00 00 00 00 82 23   Length = 0 BitCount = 0 ID = 474
  10.431016 1  390             Rx   d 8 04 00 00 00 00 80 21 FA   Length = 0 BitCount = 0 ID = 912
  10.431163 1  393             Rx   d 8 00 10 00 00 20 00 00 35   Length = 0 BitCount = 0 ID = 915
  10.435723 1  1db             Rx   d 8 00 40 B9 AA 40 00 02 B7   Length = 0 BitCount = 0 ID = 475
  10.435880 1  1dc             Rx   d 8 6E 0A 3F FD 05 58 C6 9E   Length = 0 BitCount = 0 ID = 476
  10.438348 1  1da             Rx   d 8 B9 40 00 00 00 00 83 04   Length = 0 BitCount = 0 ID = 474
  10.442351 1  55b             Rx   d 8 A4 40 AA 00 DF C0 10 95   Length = 0 BitCount = 0 ID = 1371
  10.442500 1  59e             Rx   d 8 00 00 0C 76 18 00 00 00   Length = 0 BitCount = 0 ID = 1438
  10.442798 1  5bc             Rx   d 8 3D 80 F0 64 B0 01 00 32   Length = 0 BitCount = 0 ID = 1468
  10.445722 1  1db             Rx   d 8 00 60 B9 AA 40 00 03 63   Length = 0 BitCount = 0 ID = 475
  10.445854 1  1dc             Rx   d 8 6E 0A 3F FD 08 C0 C3 0E   Length = 0 BitCount = 0 ID = 476
  10.448332 1  1da             Rx   d 8 B9 40 00 00 00 00 80 0E   Length = 0 BitCount = 0 ID = 474
  10.455643 1  1db             Rx   d 8 00 60 B9 AA 40 00 00 69   Length = 0 BitCount = 0 ID = 475
  10.455844 1  1dc             Rx   d 8 6E 0A 3F FD 0C C8 C8 72   Length = 0 BitCount = 0 ID = 476
  10.458303 1  1da             Rx   d 8 B9 00 00 00 00 00 81 29   Length = 0 BitCount = 0 ID = 474
  10.465659 1  1db             Rx   d 8 00 60 B9 AA 40 00 01 EC   Length = 0 BitCount = 0 ID = 475
  10.465894 1  1dc             Rx   d 8 6E 0A 3F FD 01 1C E5 7F   Length = 0 BitCount = 0 ID = 476
  10.468318 1  1da             Rx   d 8 B9 00 00 00 00 00 82 23   Length = 0 BitCount = 0 ID = 474
  10.475646 1  1db             Rx   d 8 00 60 B9 AA 40 00 02 E6   Length = 0 BitCount = 0 ID = 475
  10.475810 1  1dc             Rx   d 8 6E 0A 3F FD 05 58 C6 9E   Length = 0 BitCount = 0 ID = 476
  10.478321 1  1da             Rx   d 8 B9 40 00 00 00 00 83 04   Length = 0 BitCount = 0 ID = 474
  10.485647 1  1db             Rx   d 8 00 60 B9 AA 40 00 03 63   Length = 0 BitCount = 0 ID = 475
  10.485869 1  1dc             Rx   d 8 6E 0A 3F FD 08 C0 C3 0E   Length = 0 BitCount = 0 ID = 476
  10.488299 1  1da             Rx   d 8 B9 40 00 00 00 00 80 0E   Length = 0 BitCount = 0 ID = 474
  10.495661 1  1db             Rx   d 8 00 60 B9 AA 40 00 00 69   Length = 0 BitCount = 0 ID = 475
  10.495878 1  1dc             Rx   d 8 6E 0A 3F FD 0C C8 C8 72   Length = 0 BitCount = 0 ID = 476
  10.498386 1  1da             Rx   d 8 B9 00 00 00 00 00 81 29   Length = 0 BitCount = 0 ID = 474
  10.505737 1  1db             Rx   d 8 00 60 B9 AA 40 00 01 EC   Length = 0 BitCount = 0 ID = 475
  10.505862 1  1dc             Rx   d 8 6E 0A 3F FD 01 1C E5 7F   Length = 0 BitCount = 0 ID = 476
  10.508335 1  1da             Rx   d 8 B9 00 00 00 00 00 82 23   Length = 0 BitCount = 0 ID = 474
  10.515696 1  1db             Rx   d 8 00 80 B9 AA 40 00 02 D4   Length = 0 BitCount = 0 ID = 475
  10.515860 1  1dc             Rx   d 8 6E 0A 3F FD 05 58 C6 9E   Length = 0 BitCount = 0 ID = 476
  10.518378 1  1da             Rx   d 8 B9 40 00 00 00 00 83 04   Length = 0 BitCount = 0 ID = 474
  10.518517 1  55a             Rx   d 8 00 3B 3B 00 5F 00 82 D0   Length = 0 BitCount = 0 ID = 1370
  10.525880 1  1db             Rx   d 8 00 80 B9 AA 40 00 03 51   Length = 0 BitCount = 0 ID = 475
  10.526116 1  1dc             Rx   d 8 6E 0A 3F FD 08 C0 C3 0E   Length = 0 BitCount = 0 ID = 476
  10.526320 1  55b             Rx   d 8 9A 40 AA 00 FF C0 13 84   Length = 0 BitCount = 0 ID = 1371
  10.526595 1  5bc             Rx   d 8 5D C0 D7 64 A5 11 62 58   Length = 0 BitCount = 0 ID = 1468
  10.528321 1  1da             Rx   d 8 B9 40 00 00 00 00 80 0E   Length = 0 BitCount = 0 ID = 474
  10.531129 1  390             Rx   d 8 04 00 00 00 00 80 21 C7   Length = 0 BitCount = 0 ID = 912
  10.531296 1  393             Rx   d 8 00 10 00 00 20 00 00 02   Length = 0 BitCount = 0 ID = 915
  10.535673 1  1db             Rx   d 8 00 80 B9 AA 40 00 00 5B   Length = 0 BitCount = 0 ID = 475
  10.535866 1  1dc             Rx   d 8 6E 0A 3F FD 0C C8 C8 72   Length = 0 BitCount = 0 ID = 476
  10.538381 1  1da             Rx   d 8 B9 00 00 00 00 00 81 29   Length = 0 BitCount = 0 ID = 474
  10.542430 1  55b             Rx   d 8 A4 40 AA 00 DF C0 11 10   Length = 0 BitCount = 0 ID = 1371
  10.542524 1  59e             Rx   d 8 00 00 0C 76 18 00 00 00   Length = 0 BitCount = 0 ID = 1438
  10.542786 1  5bc             Rx   d 8 3D 80 F0 64 B0 01 00 32   Length = 0 BitCount = 0 ID = 1468
  10.545733 1  1db             Rx   d 8 00 60 B9 AA 40 00 01 EC   Length = 0 BitCount = 0 ID = 475
  10.545898 1  1dc             Rx   d 8 6E 0A 3F FD 01 1C E5 7F   Length = 0 BitCount = 0 ID = 476
  10.548301 1  1da             Rx   d 8 B9 00 00 00 00 00 82 23   Length = 0 BitCount = 0 ID = 474
  10.555670 1  1db             Rx   d 8 00 60 B9 AA 40 00 02 E6   Length = 0 BitCount = 0 ID = 475
  10.555867 1  1dc             Rx   d 8 6E 0A 3F FD 05 58 C6 9E   Length = 0 BitCount = 0 ID = 476
  10.558309 1  1da             Rx   d 8 B9 40 00 00 00 00 83 04   Length = 0 BitCount = 0 ID = 474
  10.565626 1  1db             Rx   d 8 00 60 B9 AA 40 00 03 63   Length = 0 BitCount = 0 ID = 475
  10.565846 1  1dc             Rx   d 8 6E 0A 3F FD 08 C0 C3 0E   Length = 0 BitCount = 0 ID = 476
  10.568313 1  1da             Rx   d 8 B9 40 00 00 00 00 80 0E   Length = 0 BitCount = 0 ID = 474
  10.575625 1  1db             Rx   d 8 00 80 B9 AA 40 00 00 5B   Length = 0 BitCount = 0 ID = 475
  10.575814 1  1dc             Rx   d 8 6E 0A 3F FD 0C C8 C8 72   Length = 0 BitCount = 0 ID = 476
  10.578303 1  1da             Rx   d 8 B9 00 00 00 00 00 81 29   Length = 0 BitCount = 0 ID = 474
  10.585658 1  1db             Rx   d 8 00 60 B9 AA 40 00 01 EC   Length = 0 BitCount = 0 ID = 475
  10.585881 1  1dc             Rx   d 8 6E 0A 3F FD 01 1C E5 7F   Length = 0 BitCount = 0 ID = 476
  10.588302 1  1da             Rx   d 8 B9 00 00 00 00 00 82 23   Length = 0 BitCount = 0 ID = 474
  10.595709 1  1db             Rx   d 8 00 60 B9 AA 40 00 02 E6   Length = 0 BitCount = 0 ID = 475
  10.595864 1  1dc             Rx   d 8 6E 0A 3F FD 05 58 C6 9E   Length = 0 BitCount = 0 ID = 476
  10.598284 1  1da             Rx   d 8 B9 40 00 00 00 00 83 04   Length = 0 BitCount = 0 ID = 474
  10.605732 1  1db             Rx   d 8 00 60 B9 AA 40 00 03 63   Length = 0 BitCount = 0 ID = 475
  10.605892 1  1dc             Rx   d 8 6E 0A 3F FD 08 C0 C3 0E   Length = 0 BitCount = 0 ID = 476
  10.608377 1  1da             Rx   d 8 B9 40 00 00 00 00 80 0E   Length = 0 BitCount = 0 ID = 474
  10.615688 1  1db             Rx   d 8 00 60 B9 AA 40 00 00 69   Length = 0 BitCount = 0 ID = 475
  10.615897 1  1dc             Rx   d 8 6E 0A 3F FD 0C C8 C8 72   Length = 0 BitCount = 0 ID = 476
  10.618321 1  1da             Rx   d 8 B9 00 00 00 00 00 81 29   Length = 0 BitCount = 0 ID = 474
  10.618518 1  55a             Rx   d 8 00 3B 3B 00 5F 00 82 D0   Length = 0 BitCount = 0 ID = 1370
  10.625905 1  1db             Rx   d 8 00 60 B9 AA 40 00 01 EC   Length = 0 BitCount = 0 ID = 475
  10.626110 1  1dc             Rx   d 8 6E 0A 3F FD 01 1C E5 7F   Length = 0 BitCount = 0 ID = 476
  10.626292 1  55b             Rx   d 8 9A 40 AA 00 FF C0 10 8E   Length = 0 BitCount = 0 ID = 1371
  10.626595 1  5bc             Rx   d 8 2F 40 D7 64 A5 02 5F FF   Length = 0 BitCount = 0 ID = 1468
  10.628339 1  1da             Rx   d 8 B9 00 00 00 00 00 82 23   Length = 0 BitCount = 0 ID = 474
  10.631234 1  390             Rx   d 8 04 00 00 00 00 80 21 D8   Length = 0 BitCount = 0 ID = 912
  10.631403 1  393             Rx   d 8 00 10 00 00 20 00 00 13   Length = 0 BitCount = 0 ID = 915
  10.635635 1  1db             Rx   d 8 00 60 B9 AA 40 00 02 E6   Length = 0 BitCount = 0 ID = 475
  10.635874 1  1dc             Rx   d 8 6E 0A 4F FD 05 58 C6 A5   Length = 0 BitCount = 0 ID = 476
  10.638352 1  1da             Rx   d 8 B9 40 00 00 00 00 83 04   Length = 0 BitCount = 0 ID = 474
  10.642424 1  55b             Rx   d 8 A4 40 AA 00 DF C0 12 1A   Length = 0 BitCount = 0 ID = 1371
  10.642518 1  59e             Rx   d 8 00 00 0C 76 18 00 00 00   Length = 0 BitCount = 0 ID = 1438
  10.642791 1  5bc             Rx   d 8 3D 80 F0 64 B0 01 00 32   Length = 0 BitCount = 0 ID = 1468
  10.645703 1  1db             Rx   d 8 00 60 B9 AA 40 00 03 63   Length = 0 BitCount = 0 ID = 475
  10.645893 1  1dc             Rx   d 8 6E 0A 4F FD 08 C0 C3 35   Length = 0 BitCount = 0 ID = 476
  10.648290 1  1da             Rx   d 8 B9 40 00 00 00 00 80 0E   Length = 0 BitCount = 0 ID = 474
  10.655646 1  1db             Rx   d 8 00 60 B9 AA 40 00 00 69   Length = 0 BitCount = 0 ID = 475
  10.655814 1  1dc             Rx   d 8 6E 0A 4F FD 0C C8 C8 49   Length = 0 BitCount = 0 ID = 476
  10.658360 1  1da             Rx   d 8 B9 00 00 00 00 00 81 29   Length = 0 BitCount = 0 ID = 474
  10.665633 1  1db             Rx   d 8 00 60 B9 AA 40 00 01 EC   Length = 0 BitCount = 0 ID = 475
  10.665864 1  1dc             Rx   d 8 6E 0A 4F FD 01 1C E5 44   Length = 0 BitCount = 0 ID = 476
  10.668261 1  1da             Rx   d 8 B9 00 00 00 00 00 82 23   Length = 0 BitCount = 0 ID = 474
  10.675600 1  1db             Rx   d 8 00 60 B9 AA 40 00 02 E6   Length = 0 BitCount = 0 ID = 475
  10.675818 1  1dc             Rx   d 8 6E 0A 4F FD 05 58 C6 A5   Length = 0 BitCount = 0 ID = 476
  10.678249 1  1da             Rx   d 8 B9 40 00 00 00 00 83 04   Length = 0 BitCount = 0 ID = 474
  10.685632 1  1db             Rx   d 8 00 80 B9 AA 40 00 03 51   Length = 0 BitCount = 0 ID = 475
  10.685854 1  1dc             Rx   d 8 6E 0A 4F FD 08 C0 C3 35   Length = 0 BitCount = 0 ID = 476
  10.688238 1  1da             Rx   d 8 B9 40 00 00 00 00 80 0E   Length = 0 BitCount = 0 ID = 474
  10.695710 1  1db             Rx   d 8 00 80 B9 AA 40 00 00 5B   Length = 0 BitCount = 0 ID = 475
  10.695837 1  1dc             Rx   d 8 6E 0A 4F FD 0C C8 C8 49   Length = 0 BitCount = 0 ID = 476
  10.698333 1  1da             Rx   d 8 B9 00 00 00 00 00 81 29   Length = 0 BitCount = 0 ID = 474
  10.705644 1  1db             Rx   d 8 00 60 B9 AA 40 00 01 EC   Length = 0 BitCount = 0 ID = 475
  10.705902 1  1dc             Rx   d 8 6E 0A 4F FD 01 1C E5 44   Length = 0 BitCount = 0 ID = 476
  10.708274 1  1da             Rx   d 8 B9 00 00 00 00 00 82 23   Length = 0 BitCount = 0 ID = 474
  10.715730 1  1db             Rx   d 8 00 60 B9 AA 40 00 02 E6   Length = 0 BitCount = 0 ID = 475
  10.715813 1  1dc             Rx   d 8 6E 0A 4F FD 05 58 C6 A5   Length = 0 BitCount = 0 ID = 476
  10.718319 1  1da             Rx   d 8 B9 40 00 00 00 00 83 04   Length = 0 BitCount = 0 ID = 474
  10.718512 1  55a             Rx   d 8 00 3B 3B 00 5F 00 82 D0   Length = 0 BitCount = 0 ID = 1370
  10.725836 1  1db             Rx   d 8 00 60 B9 AA 40 00 03 63   Length = 0 BitCount = 0 ID = 475
  10.726087 1  1dc             Rx   d 8 6E 0A 4F FD 08 C0 C3 35   Length = 0 BitCount = 0 ID = 476
  10.726339 1  55b             Rx   d 8 9A 40 AA 00 FF C0 11 0B   Length = 0 BitCount = 0 ID = 1371
  10.726558 1  5bc             Rx   d 8 5D C0 D7 64 A5 12 BF FF   Length = 0 BitCount = 0 ID = 1468
  10.728301 1  1da             Rx   d 8 B9 40 00 00 00 00 80 0E   Length = 0 BitCount = 0 ID = 474
  10.731297 1  390             Rx   d 8 04 00 00 00 00 80 21 E9   Length = 0 BitCount = 0 ID = 912
  10.731460 1  393             Rx   d 8 00 10 00 00 20 00 00 24   Length = 0 BitCount = 0 ID = 915
  10.735605 1  1db             Rx   d 8 00 60 B9 AA 40 00 00 69   Length = 0 BitCount = 0 ID = 475
  10.735815 1  1dc             Rx   d 8 6E 0A 4F FD 0C C8 C8 49   Length = 0 BitCount = 0 ID = 476
  10.738297 1  1da             Rx   d 8 B9 00 00 00 00 00 81 29   Length = 0 BitCount = 0 ID = 474
  10.742378 1  55b             Rx   d 8 A4 40 AA 00 DF C0 13 9F   Length = 0 BitCount = 0 ID = 1371
  10.742584 1  59e             Rx   d 8 00 00 0C 76 18 00 00 00   Length = 0 BitCount = 0 ID = 1438
  10.742806 1  5bc             Rx   d 8 3D 80 F0 64 B0 01 00 32   Length = 0 BitCount = 0 ID = 1468
  10.745617 1  1db             Rx   d 8 00 60 B9 AA 40 00 01 EC   Length = 0 BitCount = 0 ID = 475
  10.745850 1  1dc             Rx   d 8 6E 0A 4F FD 01 1C E5 44   Length = 0 BitCount = 0 ID = 476
  10.748271 1  1da             Rx   d 8 B9 00 00 00 00 00 82 23   Length = 0 BitCount = 0 ID = 474
  10.755650 1  1db             Rx   d 8 00 60 B9 AA 40 00 02 E6   Length = 0 BitCount = 0 ID = 475
  10.755782 1  1dc             Rx   d 8 6E 0A 4F FD 05 58 C6 A5   Length = 0 BitCount = 0 ID = 476
  10.758234 1  1da             Rx   d 8 B9 40 00 00 00 00 83 04   Length = 0 BitCount = 0 ID = 474
  10.765675 1  1db             Rx   d 8 00 60 B9 AA 40 00 03 63   Length = 0 BitCount = 0 ID = 475
  10.765830 1  1dc             Rx   d 8 6E 0A 4F FD 08 C0 C3 35   Length = 0 BitCount = 0 ID = 476
  10.768244 1  1da             Rx   d 8 B9 40 00 00 00 00 80 0E   Length = 0 BitCount = 0 ID = 474
  10.775633 1  1db             Rx   d 8 00 60 B9 AA 40 00 00 69   Length = 0 BitCount = 0 ID = 475
  10.775819 1  1dc             Rx   d 8 6E 0A 4F FD 0C C8 C8 49   Length = 0 BitCount = 0 ID = 476
  10.778247 1  1da             Rx   d 8 B9 00 00 00 00 00 81 29   Length = 0 BitCount = 0 ID = 474
  10.785645 1  1db             Rx   d 8 00 60 B9 AA 40 00 01 EC   Length = 0 BitCount = 0 ID = 475
  10.785856 1  1dc             Rx   d 8 6E 0A 4F FD 01 1C E5 44   Length = 0 BitCount = 0 ID = 476
  10.788243 1  1da             Rx   d 8 B9 00 00 00 00 00 82 23   Length = 0 BitCount = 0 ID = 474
  10.795618 1  1db             Rx   d 8 00 60 B9 AA 40 00 02 E6   Length = 0 BitCount = 0 ID = 475
  10.795827 1  1dc             Rx   d 8 6E 0A 4F FD 05 58 C6 A5   Length = 0 BitCount = 0 ID = 476
  10.798241 1  1da             Rx   d 8 B9 40 00 00 00 00 83 04   Length = 0 BitCount = 0 ID = 474
  10.805694 1  1db             Rx   d 8 00 80 B9 AA 40 00 03 51   Length = 0 BitCount = 0 ID = 475
  10.805810 1  1dc             Rx   d 8 6E 0A 4F FD 08 C0 C3 35   Length = 0 BitCount = 0 ID = 476
  10.808244 1  1da             Rx   d 8 B9 40 00 00 00 00 80 0E   Length = 0 BitCount = 0 ID = 474
  10.815610 1  1db             Rx   d 8 00 80 B9 AA 40 00 00 5B   Length = 0 BitCount = 0 ID = 475
  10.815801 1  1dc             Rx   d 8 6E 0A 4F FD 0C C8 C8 49   Length = 0 BitCount = 0 ID = 476
  10.818208 1  1da             Rx   d 8 B9 00 00 00 00 00 81 29   Length = 0 BitCount = 0 ID = 474
  10.818454 1  55a             Rx   d 8 00 3B 3B 00 5F 00 82 D0   Length = 0 BitCount = 0 ID = 1370
  10.825826 1  1db             Rx   d 8 00 60 B9 AB 40 00 01 FA   Length = 0 BitCount = 0 ID = 475
  10.826081 1  1dc             Rx   d 8 6E 0A 4F FD 01 1C E5 44   Length = 0 BitCount = 0 ID = 476
  10.826325 1  55b             Rx   d 8 9A 40 AA 00 FF C0 12 01   Length = 0 BitCount = 0 ID = 1371
  10.826552 1  5bc             Rx   d 8 2F 40 D7 64 A5 03 1F FF   Length = 0 BitCount = 0 ID = 1468
  10.828302 1  1da             Rx   d 8 B9 00 00 00 00 00 82 23   Length = 0 BitCount = 0 ID = 474
  10.831375 1  390             Rx   d 8 04 00 00 00 00 80 21 FA   Length = 0 BitCount = 0 ID = 912
  10.831604 1  393             Rx   d 8 00 10 00 00 20 00 00 35   Length = 0 BitCount = 0 ID = 915
  10.835840 1  1db             Rx   d 8 00 60 B9 AB 40 00 02 F0   Length = 0 BitCount = 0 ID = 475
  10.836013 1  1dc             Rx   d 8 6E 0A 4F FD 05 58 C6 A5   Length = 0 BitCount = 0 ID = 476
  10.836232 1  59e             Rx   d 8 00 00 0F 34 E0 00 00 00   Length = 0 BitCount = 0 ID = 1438
  10.836482 1  5c0             Rx   d 8 C0 74 76 00 77 C4 02 00   Length = 0 BitCount = 0 ID = 1472
  10.838283 1  1da             Rx   d 8 B9 40 00 00 00 00 83 04   Length = 0 BitCount = 0 ID = 474
  10.842376 1  55b             Rx   d 8 A4 40 AA 00 DF C0 10 95   Length = 0 BitCount = 0 ID = 1371
  10.842531 1  59e             Rx   d 8 00 00 0C 76 18 00 00 00   Length = 0 BitCount = 0 ID = 1438
  10.842815 1  5bc             Rx   d 8 3D 80 F0 64 B0 01 00 32   Length = 0 BitCount = 0 ID = 1468
  10.845673 1  1db             Rx   d 8 00 60 B9 AB 40 00 03 75   Length = 0 BitCount = 0 ID = 475
  10.845836 1  1dc             Rx   d 8 6E 0A 4F FD 08 C0 C3 35   Length = 0 BitCount = 0 ID = 476
  10.848262 1  1da             Rx   d 8 B9 40 00 00 00 00 80 0E   Length = 0 BitCount = 0 ID = 474
  10.855665 1  1db             Rx   d 8 00 60 B9 AB 40 00 00 7F   Length = 0 BitCount = 0 ID = 475
  10.855821 1  1dc             Rx   d 8 6E 0A 4F FD 0C C8 C8 49   Length = 0 BitCount = 0 ID = 476
  10.858241 1  1da             Rx   d 8 B9 00 00 00 00 00 81 29   Length = 0 BitCount = 0 ID = 474
  10.865688 1  1db             Rx   d 8 00 60 B9 AB 40 00 01 FA   Length = 0 BitCount = 0 ID = 475
  10.865879 1  1dc             Rx   d 8 6E 0A 4F FD 01 1C E5 44   Length = 0 BitCount = 0 ID = 476
  10.868272 1  1da             Rx   d 8 B9 00 00 00 00 00 82 23   Length = 0 BitCount = 0 ID = 474
  10.875603 1  1db             Rx   d 8 00 60 B9 AB 40 00 02 F0   Length = 0 BitCount = 0 ID = 475
  10.875829 1  1dc             Rx   d 8 6E 0A 4F FD 05 58 C6 A5   Length = 0 BitCount = 0 ID = 476
  10.878227 1  1da             Rx   d 8 B9 40 00 00 00 00 83 04   Length = 0 BitCount = 0 ID = 474
  10.885596 1  1db             Rx   d 8 00 60 B9 AB 40 00 03 75   Length = 0 BitCount = 0 ID = 475
  10.885869 1  1dc             Rx   d 8 6E 0A 4F FD 08 C0 C3 35   Length = 0 BitCount = 0 ID = 476
  10.888241 1  1da             Rx   d 8 B9 40 00 00 00 00 80 0E   Length = 0 BitCount = 0 ID = 474
  10.895616 1  1db             Rx   d 8 00 60 B9 AB 40 00 00 7F   Length = 0 BitCount = 0 ID = 475
  10.895827 1  1dc             Rx   d 8 6E 0A 4F FD 0C C8 C8 49   Length = 0 BitCount = 0 ID = 476
  10.898235 1  1da             Rx   d 8 B9 00 00 00 00 00 81 29   Length = 0 BitCount = 0 ID = 474
  10.905690 1  1db             Rx   d 8 00 40 B9 AB 40 00 01 AB   Length = 0 BitCount = 0 ID = 475
  10.905857 1  1dc             Rx   d 8 6E 0A 4F FD 01 1C E5 44   Length = 0 BitCount = 0 ID = 476
  10.908217 1  1da             Rx   d 8 B9 00 00 00 00 00 82 23   Length = 0 BitCount = 0 ID = 474
  10.915687 1  1db             Rx   d 8 00 40 B9 AB 40 00 02 A1   Length = 0 BitCount = 0 ID = 475
  10.915822 1  1dc             Rx   d 8 6E 0A 4F FD 05 58 C6 A5   Length = 0 BitCount = 0 ID = 476
  10.918309 1  1da             Rx   d 8 B9 40 00 00 00 00 83 04   Length = 0 BitCount = 0 ID = 474
  10.918484 1  55a             Rx   d 8 00 3B 3B 00 5F 00 82 D0   Length = 0 BitCount = 0 ID = 1370
  10.925858 1  1db             Rx   d 8 00 60 B9 AB 40 00 03 75   Length = 0 BitCount = 0 ID = 475
  10.926094 1  1dc             Rx   d 8 6E 0A 4F FD 08 C0 C3 35   Length = 0 BitCount = 0 ID = 476
  10.926323 1  55b             Rx   d 8 9A 40 AA 00 FF C0 13 84   Length = 0 BitCount = 0 ID = 1371
  10.926565 1  5bc             Rx   d 8 5D C0 A0 64 A4 10 1F FF   Length = 0 BitCount = 0 ID = 1468
  10.928313 1  1da             Rx   d 8 B9 40 00 00 00 00 80 0E   Length = 0 BitCount = 0 ID = 474
  10.931495 1  390             Rx   d 8 04 00 00 00 00 80 21 C7   Length = 0 BitCount = 0 ID = 912
  10.931811 1  393             Rx   d 8 00 10 00 00 20 00 00 02   Length = 0 BitCount = 0 ID = 915
  10.935690 1  1db             Rx   d 8 00 60 B9 AB 40 00 00 7F   Length = 0 BitCount = 0 ID = 475
  10.935861 1  1dc             Rx   d 8 6E 0A 5F FD 0C C8 C8 1B   Length = 0 BitCount = 0 ID = 476
  10.938292 1  1da             Rx   d 8 B9 00 00 00 00 00 81 29   Length = 0 BitCount = 0 ID = 474
  10.942354 1  55b             Rx   d 8 A4 40 AA 00 DF C0 11 10   Length = 0 BitCount = 0 ID = 1371
  10.942567 1  59e             Rx   d 8 00 00 0C 76 18 00 00 00   Length = 0 BitCount = 0 ID = 1438
  10.942847 1  5bc             Rx   d 8 3D 80 F0 64 B0 01 00 32   Length = 0 BitCount = 0 ID = 1468
  10.945689 1  1db             Rx   d 8 00 60 B9 AB 40 00 01 FA   Length = 0 BitCount = 0 ID = 475
  10.945858 1  1dc             Rx   d 8 6E 0A 5F FD 01 1C E5 16   Length = 0 BitCount = 0 ID = 476
  10.948310 1  1da             Rx   d 8 B9 00 00 00 00 00 82 23   Length = 0 BitCount = 0 ID = 474
  10.955692 1  1db             Rx   d 8 00 60 B9 AB 40 00 02 F0   Length = 0 BitCount = 0 ID = 475
  10.955859 1  1dc             Rx   d 8 6E 0A 5F FD 05 58 C6 F7   Length = 0 BitCount = 0 ID = 476
  10.958212 1  1da             Rx   d 8 B9 40 00 00 00 00 83 04   Length = 0 BitCount = 0 ID = 474
  10.965719 1  1db             Rx   d 8 00 60 B9 AB 40 00 03 75   Length = 0 BitCount = 0 ID = 475
  10.965854 1  1dc             Rx   d 8 6E 0A 5F FD 08 C0 C3 67   Length = 0 BitCount = 0 ID = 476
  10.968293 1  1da             Rx   d 8 B9 40 00 00 00 00 80 0E   Length = 0 BitCount = 0 ID = 474
  10.975612 1  1db             Rx   d 8 00 60 B9 AB 40 00 00 7F   Length = 0 BitCount = 0 ID = 475
  10.975820 1  1dc             Rx   d 8 6E 0A 5F FD 0C C8 C8 1B   Length = 0 BitCount = 0 ID = 476
  10.978288 1  1da             Rx   d 8 B9 00 00 00 00 00 81 29   Length = 0 BitCount = 0 ID = 474
  10.985622 1  1db             Rx   d 8 00 60 B9 AB 40 00 01 FA   Length = 0 BitCount = 0 ID = 475
  10.985818 1  1dc             Rx   d 8 6E 0A 5F FD 01 1C E5 16   Length = 0 BitCount = 0 ID = 476
  10.988192 1  1da             Rx   d 8 B9 00 00 00 00 00 82 23   Length = 0 BitCount = 0 ID = 474
  10.995624 1  1db             Rx   d 8 00 60 B9 AB 40 00 02 F0   Length = 0 BitCount = 0 ID = 475
  10.995816 1  1dc             Rx   d 8 6E 0A 5F FD 05 58 C6 F7   Length = 0 BitCount = 0 ID = 476
  10.998214 1  1da             Rx   d 8 B9 40 00 00 00 00 83 04   Length = 0 BitCount = 0 ID = 474
  11.005614 1  1db             Rx   d 8 00 60 B9 AB 40 00 03 75   Length = 0 BitCount = 0 ID = 475
  11.005838 1  1dc             Rx   d 8 6E 0A 5F FD 08 C0 C3 67   Length = 0 BitCount = 0 ID = 476
  11.008182 1  1da             Rx   d 8 B9 40 00 00 00 00 80 0E   Length = 0 BitCount = 0 ID = 474
  11.015615 1  1db             Rx   d 8 00 60 B9 AB 40 00 00 7F   Length = 0 BitCount = 0 ID = 475
  11.015807 1  1dc             Rx   d 8 6E 0A 5F FD 0C C8 C8 1B   Length = 0 BitCount = 0 ID = 476
  11.018220 1  1da             Rx   d 8 B9 00 00 00 00 00 81 29   Length = 0 BitCount = 0 ID = 474
  11.018447 1  55a             Rx   d 8 00 3B 3B 00 5F 00 82 D0   Length = 0 BitCount = 0 ID = 1370
  11.025836 1  1db             Rx   d 8 00 60 B9 AB 40 00 01 FA   Length = 0 BitCount = 0 ID = 475
  11.026079 1  1dc             Rx   d 8 6E 0A 5F FD 01 1C E5 16   Length = 0 BitCount = 0 ID = 476
  11.026327 1  55b             Rx   d 8 9A 40 AA 00 FF C0 10 8E   Length = 0 BitCount = 0 ID = 1371
  11.026557 1  5bc             Rx   d 8 2F 40 A0 64 A4 00 A0 96   Length = 0 BitCount = 0 ID = 1468
  11.028257 1  1da             Rx   d 8 B9 00 00 00 00 00 82 23   Length = 0 BitCount = 0 ID = 474
  11.031653 1  390             Rx   d 8 04 00 00 00 00 80 21 D8   Length = 0 BitCount = 0 ID = 912
  11.031840 1  393             Rx   d 8 00 10 00 00 20 00 00 13   Length = 0 BitCount = 0 ID = 915
  11.035649 1  1db             Rx   d 8 00 60 B9 AB 40 00 02 F0   Length = 0 BitCount = 0 ID = 475
  11.035803 1  1dc             Rx   d 8 6E 0A 5F FD 05 58 C6 F7   Length = 0 BitCount = 0 ID = 476
  11.038267 1  1da             Rx   d 8 B9 40 00 00 00 00 83 04   Length = 0 BitCount = 0 ID = 474
  11.042359 1  55b             Rx   d 8 A4 40 AA 00 DF C0 12 1A   Length = 0 BitCount = 0 ID = 1371
  11.042525 1  59e             Rx   d 8 00 00 0C 76 18 00 00 00   Length = 0 BitCount = 0 ID = 1438
  11.042855 1  5bc             Rx   d 8 3D 80 F0 64 B0 01 00 32   Length = 0 BitCount = 0 ID = 1468
  11.045659 1  1db             Rx   d 8 00 60 B9 AB 40 00 03 75   Length = 0 BitCount = 0 ID = 475
  11.045825 1  1dc             Rx   d 8 6E 0A 5F FD 08 C0 C3 67   Length = 0 BitCount = 0 ID = 476
  11.048223 1  1da             Rx   d 8 B9 40 00 00 00 00 80 0E   Length = 0 BitCount = 0 ID = 474
  11.055643 1  1db             Rx   d 8 00 60 B9 AB 40 00 00 7F   Length = 0 BitCount = 0 ID = 475
  11.055811 1  1dc             Rx   d 8 6E 0A 5F FD 0C C8 C8 1B   Length = 0 BitCount = 0 ID = 476
  11.058146 1  1da             Rx   d 8 B9 00 00 00 00 00 81 29   Length = 0 BitCount = 0 ID = 474
  11.065648 1  1db             Rx   d 8 00 60 B9 AB 40 00 01 FA   Length = 0 BitCount = 0 ID = 475
  11.065850 1  1dc             Rx   d 8 6E 0A 5F FD 01 1C E5 16   Length = 0 BitCount = 0 ID = 476
  11.068203 1  1da             Rx   d 8 B9 00 00 00 00 00 82 23   Length = 0 BitCount = 0 ID = 474
  11.075557 1  1db             Rx   d 8 00 60 B9 AB 40 00 02 F0   Length = 0 BitCount = 0 ID = 475
  11.075803 1  1dc             Rx   d 8 6E 0A 5F FD 05 58 C6 F7   Length = 0 BitCount = 0 ID = 476
  11.078196 1  1da             Rx   d 8 B9 40 00 00 00 00 83 04   Length = 0 BitCount = 0 ID = 474
  11.085612 1  1db             Rx   d 8 00 60 B9 AB 40 00 03 75   Length = 0 BitCount = 0 ID = 475
  11.085833 1  1dc             Rx   d 8 6E 0A 5F FD 08 C0 C3 67   Length = 0 BitCount = 0 ID = 476
  11.088125 1  1da             Rx   d 8 B9 40 00 00 00 00 80 0E   Length = 0 BitCount = 0 ID = 474
  11.095572 1  1db             Rx   d 8 00 60 B9 AB 40 00 00 7F   Length = 0 BitCount = 0 ID = 475
  11.095771 1  1dc             Rx   d 8 6E 0A 5F FD 0C C8 C8 1B   Length = 0 BitCount = 0 ID = 476
  11.098155 1  1da             Rx   d 8 B9 00 00 00 00 00 81 29   Length = 0 BitCount = 0 ID = 474
  11.105527 1  1db             Rx   d 8 00 60 B9 AB 40 00 01 FA   Length = 0 BitCount = 0 ID = 475
  11.105806 1  1dc             Rx   d 8 6E 0A 5F FD 01 1C E5 16   Length = 0 BitCount = 0 ID = 476
  11.108131 1  1da             Rx   d 8 B9 00 00 00 00 00 82 23   Length = 0 BitCount = 0 ID = 474
  11.115569 1  1db             Rx   d 8 00 60 B9 AB 40 00 02 F0   Length = 0 BitCount = 0 ID = 475
  11.115783 1  1dc             Rx   d 8 6E 0A 5F FD 05 58 C6 F7   Length = 0 BitCount = 0 ID = 476
