date Sun Apr 14 05:09:37.822 pm 2024
base hex  timestamps absolute
internal events logged
// version 8.5.0
Begin Triggerblock Sun Apr 14 05:09:37.822 pm 2024
   0.000000 Start of measurement
   0.000000 1  7de             Rx   d 8 33 00 00 00 50 36 16 43   Length = 0 BitCount = 0 ID = 2014
   0.066078 1  7de             Rx   d 1 44   Length = 0 BitCount = 0 ID = 2014
   0.146420 1  55b             Rx   d 8 A4 40 AA 00 DF C0 10 95   Length = 0 BitCount = 0 ID = 1371
   0.146675 1  59e             Rx   d 8 00 00 0C 76 18 00 00 00   Length = 0 BitCount = 0 ID = 1438
   0.146893 1  55b             Rx   d 8 A4 40 AA 00 DF C0 11 10   Length = 0 BitCount = 0 ID = 1371
   0.147127 1  5bc             Rx   d 8 3D 80 F0 64 B0 01 00 32   Length = 0 BitCount = 0 ID = 1468
   0.147369 1  55b             Rx   d 8 A4 40 AA 00 DF C0 10 95   Length = 0 BitCount = 0 ID = 1371
   0.147598 1  55b             Rx   d 8 A4 40 AA 00 DF C0 12 1A   Length = 0 BitCount = 0 ID = 1371
   0.147808 1  55b             Rx   d 8 A4 40 AA 00 DF C0 11 10   Length = 0 BitCount = 0 ID = 1371
   0.148067 1  5bc             Rx   d 8 3D 80 F0 64 B0 01 00 32   Length = 0 BitCount = 0 ID = 1468
   0.148294 1  59e             Rx   d 8 00 00 0C 76 18 00 00 00   Length = 0 BitCount = 0 ID = 1438
   0.148464 1  55b             Rx   d 8 A4 40 AA 00 DF C0 13 9F   Length = 0 BitCount = 0 ID = 1371
   0.148723 1  5bc             Rx   d 8 3D 80 F0 64 B0 01 00 32   Length = 0 BitCount = 0 ID = 1468
   0.148951 1  59e             Rx   d 8 00 00 0C 76 18 00 00 00   Length = 0 BitCount = 0 ID = 1438
   0.149185 1  55b             Rx   d 8 A4 40 AA 00 DF C0 13 9F   Length = 0 BitCount = 0 ID = 1371
   0.149407 1  59e             Rx   d 8 00 00 0C 76 18 00 00 00   Length = 0 BitCount = 0 ID = 1438
   0.149789 1  1da             Rx   d 8 FF 00 00 00 7F FE 01 97   Length = 0 BitCount = 0 ID = 474
   0.149966 1  55b             Rx   d 8 A4 40 AA 00 DF C0 12 1A   Length = 0 BitCount = 0 ID = 1371
   0.150196 1  5bc             Rx   d 8 3D 80 F0 64 B0 01 00 32   Length = 0 BitCount = 0 ID = 1468
   0.150409 1  59e             Rx   d 8 00 00 0C 76 18 00 00 00   Length = 0 BitCount = 0 ID = 1438
   0.150658 1  55b             Rx   d 8 A4 40 AA 00 DF C0 12 1A   Length = 0 BitCount = 0 ID = 1371
   0.150918 1  5bc             Rx   d 8 3D 80 F0 64 B0 01 00 32   Length = 0 BitCount = 0 ID = 1468
   0.151146 1  59e             Rx   d 8 00 00 0C 76 18 00 00 00   Length = 0 BitCount = 0 ID = 1438
   0.151374 1  55b             Rx   d 8 A4 40 AA 00 DF C0 11 10   Length = 0 BitCount = 0 ID = 1371
   0.151626 1  5bc             Rx   d 8 3D 80 F0 64 B0 01 00 32   Length = 0 BitCount = 0 ID = 1468
   0.151805 1  59e             Rx   d 8 00 00 0C 76 18 00 00 00   Length = 0 BitCount = 0 ID = 1438
   0.152027 1  5bc             Rx   d 8 3D 80 F0 64 B0 01 00 32   Length = 0 BitCount = 0 ID = 1468
   0.152346 1  59e             Rx   d 8 00 00 0C 76 18 00 00 00   Length = 0 BitCount = 0 ID = 1438
   0.152572 1  55b             Rx   d 8 A4 40 AA 00 DF C0 10 95   Length = 0 BitCount = 0 ID = 1371
   0.152755 1  5bc             Rx   d 8 3D 80 F0 64 B0 01 00 32   Length = 0 BitCount = 0 ID = 1468
   0.159769 1  1da             Rx   d 8 FF 00 00 00 7F FE 02 9D   Length = 0 BitCount = 0 ID = 474
   0.169750 1  1da             Rx   d 8 22 40 00 00 7F FE 03 26   Length = 0 BitCount = 0 ID = 474
   0.179786 1  1da             Rx   d 8 22 40 00 00 7F FE 00 2C   Length = 0 BitCount = 0 ID = 474
   0.189874 1  1da             Rx   d 8 22 00 00 00 7F FE 01 0B   Length = 0 BitCount = 0 ID = 474
   0.192145 1  55b             Rx   d 8 A4 40 AA 00 DF C0 13 9F   Length = 0 BitCount = 0 ID = 1371
   0.192338 1  59e             Rx   d 8 00 00 0C 76 18 00 00 00   Length = 0 BitCount = 0 ID = 1438
   0.192566 1  5bc             Rx   d 8 3D 80 F0 64 B0 01 00 32   Length = 0 BitCount = 0 ID = 1468
   0.192808 1  59e             Rx   d 8 00 00 0C 76 18 00 00 00   Length = 0 BitCount = 0 ID = 1438
   0.193026 1  55b             Rx   d 8 A4 40 AA 00 DF C0 13 9F   Length = 0 BitCount = 0 ID = 1371
   0.193280 1  5bc             Rx   d 8 3D 80 F0 64 B0 01 00 32   Length = 0 BitCount = 0 ID = 1468
   0.199882 1  1da             Rx   d 8 22 00 00 00 7F FE 02 01   Length = 0 BitCount = 0 ID = 474
   0.209880 1  1da             Rx   d 8 22 40 00 00 7F FE 03 26   Length = 0 BitCount = 0 ID = 474
   0.219869 1  1da             Rx   d 8 22 40 00 00 7F FE 00 2C   Length = 0 BitCount = 0 ID = 474
   0.229873 1  1da             Rx   d 8 22 00 00 00 7F FE 01 0B   Length = 0 BitCount = 0 ID = 474
   0.239796 1  1da             Rx   d 8 22 00 00 00 7F FE 02 01   Length = 0 BitCount = 0 ID = 474
   0.239986 1  55a             Rx   d 8 00 3C 3B 00 5F 00 7B 08   Length = 0 BitCount = 0 ID = 1370
   0.249776 1  1da             Rx   d 8 22 40 00 00 7F FE 03 26   Length = 0 BitCount = 0 ID = 474
   0.259739 1  1da             Rx   d 8 22 40 00 00 7F FE 00 2C   Length = 0 BitCount = 0 ID = 474
   0.269823 1  1da             Rx   d 8 22 00 00 00 7F FE 01 0B   Length = 0 BitCount = 0 ID = 474
   0.279739 1  1da             Rx   d 8 22 00 00 00 7F FE 02 01   Length = 0 BitCount = 0 ID = 474
   0.289735 1  1da             Rx   d 8 22 40 00 00 7F FE 03 26   Length = 0 BitCount = 0 ID = 474
   0.292070 1  55b             Rx   d 8 A4 40 AA 00 DF C0 10 95   Length = 0 BitCount = 0 ID = 1371
   0.292321 1  59e             Rx   d 8 00 00 0C 76 18 00 00 00   Length = 0 BitCount = 0 ID = 1438
   0.292545 1  5bc             Rx   d 8 3D 80 F0 64 B0 01 00 32   Length = 0 BitCount = 0 ID = 1468
   0.292794 1  59e             Rx   d 8 00 00 0C 76 18 00 00 00   Length = 0 BitCount = 0 ID = 1438
   0.293020 1  55b             Rx   d 8 A4 40 AA 00 DF C0 10 95   Length = 0 BitCount = 0 ID = 1371
   0.293273 1  5bc             Rx   d 8 3D 80 F0 64 B0 01 00 32   Length = 0 BitCount = 0 ID = 1468
   0.299724 1  1da             Rx   d 8 22 40 00 00 7F FE 00 2C   Length = 0 BitCount = 0 ID = 474
   0.309800 1  1da             Rx   d 8 22 00 00 00 7F FE 01 0B   Length = 0 BitCount = 0 ID = 474
   0.319804 1  1da             Rx   d 8 22 00 00 00 7F FE 02 01   Length = 0 BitCount = 0 ID = 474
   0.329798 1  1da             Rx   d 8 22 40 00 00 7F FE 03 26   Length = 0 BitCount = 0 ID = 474
   0.339763 1  1da             Rx   d 8 22 40 00 00 7F FE 00 2C   Length = 0 BitCount = 0 ID = 474
   0.339963 1  55a             Rx   d 8 00 3C 3B 00 5F 00 7B 08   Length = 0 BitCount = 0 ID = 1370
   0.349779 1  1da             Rx   d 8 22 00 00 00 7F FE 01 0B   Length = 0 BitCount = 0 ID = 474
   0.359753 1  1da             Rx   d 8 22 00 00 00 7F FE 02 01   Length = 0 BitCount = 0 ID = 474
   0.369703 1  1da             Rx   d 8 22 40 00 00 7F FE 03 26   Length = 0 BitCount = 0 ID = 474
   0.379699 1  1da             Rx   d 8 22 40 00 00 7F FE 00 2C   Length = 0 BitCount = 0 ID = 474
   0.389702 1  1da             Rx   d 8 22 00 00 00 7F FE 01 0B   Length = 0 BitCount = 0 ID = 474
   0.392146 1  55b             Rx   d 8 A4 40 AA 00 DF C0 11 10   Length = 0 BitCount = 0 ID = 1371
   0.392338 1  59e             Rx   d 8 00 00 0C 76 18 00 00 00   Length = 0 BitCount = 0 ID = 1438
   0.392567 1  5bc             Rx   d 8 3D 80 F0 64 B0 01 00 32   Length = 0 BitCount = 0 ID = 1468
   0.392802 1  59e             Rx   d 8 00 00 0C 76 18 00 00 00   Length = 0 BitCount = 0 ID = 1438
   0.393027 1  55b             Rx   d 8 A4 40 AA 00 DF C0 11 10   Length = 0 BitCount = 0 ID = 1371
   0.393282 1  5bc             Rx   d 8 3D 80 F0 64 B0 01 00 32   Length = 0 BitCount = 0 ID = 1468
   0.399776 1  1da             Rx   d 8 22 00 00 00 7F FE 02 01   Length = 0 BitCount = 0 ID = 474
   0.409776 1  1da             Rx   d 8 22 40 00 00 00 00 03 46   Length = 0 BitCount = 0 ID = 474
   0.419719 1  1da             Rx   d 8 22 40 00 00 00 00 00 4C   Length = 0 BitCount = 0 ID = 474
   0.429802 1  1da             Rx   d 8 22 00 00 00 00 00 01 6B   Length = 0 BitCount = 0 ID = 474
   0.439793 1  1da             Rx   d 8 22 00 00 00 00 00 02 61   Length = 0 BitCount = 0 ID = 474
   0.439984 1  55a             Rx   d 8 00 3C 3B 00 5F 00 7B 08   Length = 0 BitCount = 0 ID = 1370
   0.449790 1  1da             Rx   d 8 22 40 00 00 00 00 03 46   Length = 0 BitCount = 0 ID = 474
   0.459700 1  1da             Rx   d 8 22 40 00 00 00 00 00 4C   Length = 0 BitCount = 0 ID = 474
   0.469728 1  1da             Rx   d 8 22 00 00 00 00 00 01 6B   Length = 0 BitCount = 0 ID = 474
   0.479737 1  1da             Rx   d 8 22 00 00 00 00 00 02 61   Length = 0 BitCount = 0 ID = 474
   0.489726 1  1da             Rx   d 8 22 40 00 00 00 00 03 46   Length = 0 BitCount = 0 ID = 474
   0.492100 1  55b             Rx   d 8 A4 40 AA 00 DF C0 12 1A   Length = 0 BitCount = 0 ID = 1371
   0.492352 1  59e             Rx   d 8 00 00 0C 76 18 00 00 00   Length = 0 BitCount = 0 ID = 1438
   0.492582 1  5bc             Rx   d 8 3D 80 F0 64 B0 01 00 32   Length = 0 BitCount = 0 ID = 1468
   0.492830 1  59e             Rx   d 8 00 00 0C 76 18 00 00 00   Length = 0 BitCount = 0 ID = 1438
   0.493057 1  55b             Rx   d 8 A4 40 AA 00 DF C0 12 1A   Length = 0 BitCount = 0 ID = 1371
   0.493282 1  5bc             Rx   d 8 3D 80 F0 64 B0 01 00 32   Length = 0 BitCount = 0 ID = 1468
   0.499800 1  1da             Rx   d 8 22 40 00 00 00 00 00 4C   Length = 0 BitCount = 0 ID = 474
   0.509775 1  1da             Rx   d 8 22 00 00 00 00 00 01 6B   Length = 0 BitCount = 0 ID = 474
   0.519770 1  1da             Rx   d 8 22 00 00 00 00 00 02 61   Length = 0 BitCount = 0 ID = 474
   0.529724 1  1da             Rx   d 8 21 40 00 00 00 00 03 4F   Length = 0 BitCount = 0 ID = 474
   0.539780 1  1da             Rx   d 8 21 40 00 00 00 00 00 45   Length = 0 BitCount = 0 ID = 474
   0.539965 1  55a             Rx   d 8 00 3C 3B 00 5F 00 7B 08   Length = 0 BitCount = 0 ID = 1370
   0.549784 1  1da             Rx   d 8 21 00 00 00 00 00 01 62   Length = 0 BitCount = 0 ID = 474
   0.559779 1  1da             Rx   d 8 21 00 00 00 00 00 02 68   Length = 0 BitCount = 0 ID = 474
   0.569689 1  1da             Rx   d 8 21 40 00 00 00 00 03 4F   Length = 0 BitCount = 0 ID = 474
   0.579704 1  1da             Rx   d 8 21 40 00 00 00 00 00 45   Length = 0 BitCount = 0 ID = 474
   0.589685 1  1da             Rx   d 8 21 00 00 00 00 00 01 62   Length = 0 BitCount = 0 ID = 474
   0.592104 1  55b             Rx   d 8 A4 40 AA 00 DF C0 13 9F   Length = 0 BitCount = 0 ID = 1371
   0.592352 1  59e             Rx   d 8 00 00 0C 76 18 00 00 00   Length = 0 BitCount = 0 ID = 1438
   0.592579 1  5bc             Rx   d 8 3D 80 F0 64 B0 01 00 32   Length = 0 BitCount = 0 ID = 1468
   0.592825 1  59e             Rx   d 8 00 00 0C 76 18 00 00 00   Length = 0 BitCount = 0 ID = 1438
   0.593052 1  55b             Rx   d 8 A4 40 AA 00 DF C0 13 9F   Length = 0 BitCount = 0 ID = 1371
   0.593306 1  5bc             Rx   d 8 3D 80 F0 64 B0 01 00 32   Length = 0 BitCount = 0 ID = 1468
   0.599735 1  1da             Rx   d 8 21 00 00 00 00 00 02 68   Length = 0 BitCount = 0 ID = 474
   0.609762 1  1da             Rx   d 8 21 40 00 00 00 00 03 4F   Length = 0 BitCount = 0 ID = 474
   0.619711 1  1da             Rx   d 8 21 40 00 00 00 00 00 45   Length = 0 BitCount = 0 ID = 474
   0.629754 1  1da             Rx   d 8 21 00 00 00 00 00 01 62   Length = 0 BitCount = 0 ID = 474
   0.639710 1  1da             Rx   d 8 21 00 00 00 00 00 02 68   Length = 0 BitCount = 0 ID = 474
   0.639949 1  55a             Rx   d 8 00 3C 3B 00 5F 00 7B 08   Length = 0 BitCount = 0 ID = 1370
   0.649754 1  1da             Rx   d 8 21 40 00 00 00 00 03 4F   Length = 0 BitCount = 0 ID = 474
   0.659708 1  1da             Rx   d 8 21 40 00 00 00 00 00 45   Length = 0 BitCount = 0 ID = 474
   0.669709 1  1da             Rx   d 8 21 00 00 00 00 00 01 62   Length = 0 BitCount = 0 ID = 474
   0.679687 1  1da             Rx   d 8 21 00 00 00 00 00 82 E1   Length = 0 BitCount = 0 ID = 474
   0.692110 1  55b             Rx   d 8 A4 40 AA 00 DF C0 10 95   Length = 0 BitCount = 0 ID = 1371
   0.692358 1  59e             Rx   d 8 00 00 0C 76 18 00 00 00   Length = 0 BitCount = 0 ID = 1438
   0.692586 1  5bc             Rx   d 8 3D 80 F0 64 B0 01 00 32   Length = 0 BitCount = 0 ID = 1468
   0.692832 1  59e             Rx   d 8 00 00 0C 76 18 00 00 00   Length = 0 BitCount = 0 ID = 1438
   0.693057 1  55b             Rx   d 8 A4 40 AA 00 DF C0 10 95   Length = 0 BitCount = 0 ID = 1371
   0.693283 1  5bc             Rx   d 8 3D 80 F0 64 B0 01 00 32   Length = 0 BitCount = 0 ID = 1468
   0.792119 1  55b             Rx   d 8 A4 40 AA 00 DF C0 11 10   Length = 0 BitCount = 0 ID = 1371
   0.792364 1  59e             Rx   d 8 00 00 0C 76 18 00 00 00   Length = 0 BitCount = 0 ID = 1438
   0.792585 1  5bc             Rx   d 8 3D 80 F0 64 B0 01 00 32   Length = 0 BitCount = 0 ID = 1468
   0.792830 1  59e             Rx   d 8 00 00 0C 76 18 00 00 00   Length = 0 BitCount = 0 ID = 1438
   0.793059 1  55b             Rx   d 8 A4 40 AA 00 DF C0 11 10   Length = 0 BitCount = 0 ID = 1371
   0.793288 1  5bc             Rx   d 8 3D 80 F0 64 B0 01 00 32   Length = 0 BitCount = 0 ID = 1468
   0.892140 1  55b             Rx   d 8 A4 40 AA 00 DF C0 12 1A   Length = 0 BitCount = 0 ID = 1371
   0.892372 1  59e             Rx   d 8 00 00 0C 76 18 00 00 00   Length = 0 BitCount = 0 ID = 1438
   0.892574 1  5bc             Rx   d 8 3D 80 F0 64 B0 01 00 32   Length = 0 BitCount = 0 ID = 1468
   0.892831 1  59e             Rx   d 8 00 00 0C 76 18 00 00 00   Length = 0 BitCount = 0 ID = 1438
   0.893078 1  55b             Rx   d 8 A4 40 AA 00 DF C0 12 1A   Length = 0 BitCount = 0 ID = 1371
   0.893303 1  5bc             Rx   d 8 3D 80 F0 64 B0 01 00 32   Length = 0 BitCount = 0 ID = 1468
   0.992140 1  55b             Rx   d 8 A4 40 AA 00 DF C0 13 9F   Length = 0 BitCount = 0 ID = 1371
   0.992370 1  59e             Rx   d 8 00 00 0C 76 18 00 00 00   Length = 0 BitCount = 0 ID = 1438
   0.992599 1  5bc             Rx   d 8 3D 80 F0 64 B0 01 00 32   Length = 0 BitCount = 0 ID = 1468
   0.992842 1  59e             Rx   d 8 00 00 0C 76 18 00 00 00   Length = 0 BitCount = 0 ID = 1438
   0.993070 1  55b             Rx   d 8 A4 40 AA 00 DF C0 13 9F   Length = 0 BitCount = 0 ID = 1371
   0.993323 1  5bc             Rx   d 8 3D 80 F0 64 B0 01 00 32   Length = 0 BitCount = 0 ID = 1468
   1.092193 1  55b             Rx   d 8 A4 40 AA 00 DF C0 10 95   Length = 0 BitCount = 0 ID = 1371
   1.092368 1  59e             Rx   d 8 00 00 0C 76 18 00 00 00   Length = 0 BitCount = 0 ID = 1438
   1.092614 1  5bc             Rx   d 8 3D 80 F0 64 B0 01 00 32   Length = 0 BitCount = 0 ID = 1468
   1.092849 1  59e             Rx   d 8 00 00 0C 76 18 00 00 00   Length = 0 BitCount = 0 ID = 1438
   1.093082 1  55b             Rx   d 8 A4 40 AA 00 DF C0 10 95   Length = 0 BitCount = 0 ID = 1371
   1.093250 1  5bc             Rx   d 8 3D 80 F0 64 B0 01 00 32   Length = 0 BitCount = 0 ID = 1468
   1.192150 1  55b             Rx   d 8 A4 40 AA 00 DF C0 11 10   Length = 0 BitCount = 0 ID = 1371
   1.192356 1  59e             Rx   d 8 00 00 0C 76 18 00 00 00   Length = 0 BitCount = 0 ID = 1438
   1.192605 1  5bc             Rx   d 8 3D 80 F0 64 B0 01 00 32   Length = 0 BitCount = 0 ID = 1468
   1.192848 1  59e             Rx   d 8 00 00 0C 76 18 00 00 00   Length = 0 BitCount = 0 ID = 1438
   1.193077 1  55b             Rx   d 8 A4 40 AA 00 DF C0 11 10   Length = 0 BitCount = 0 ID = 1371
   1.193311 1  5bc             Rx   d 8 3D 80 F0 64 B0 01 00 32   Length = 0 BitCount = 0 ID = 1468
   1.292116 1  55b             Rx   d 8 A4 40 AA 00 DF C0 12 1A   Length = 0 BitCount = 0 ID = 1371
   1.292315 1  59e             Rx   d 8 00 00 0C 76 18 00 00 00   Length = 0 BitCount = 0 ID = 1438
   1.292610 1  5bc             Rx   d 8 3D 80 F0 64 B0 01 00 32   Length = 0 BitCount = 0 ID = 1468
   1.292852 1  59e             Rx   d 8 00 00 0C 76 18 00 00 00   Length = 0 BitCount = 0 ID = 1438
   1.293084 1  55b             Rx   d 8 A4 40 AA 00 DF C0 12 1A   Length = 0 BitCount = 0 ID = 1371
   1.293312 1  5bc             Rx   d 8 3D 80 F0 64 B0 01 00 32   Length = 0 BitCount = 0 ID = 1468
   1.392198 1  55b             Rx   d 8 A4 40 AA 00 DF C0 13 9F   Length = 0 BitCount = 0 ID = 1371
   1.392362 1  59e             Rx   d 8 00 00 0C 76 18 00 00 00   Length = 0 BitCount = 0 ID = 1438
   1.392626 1  5bc             Rx   d 8 3D 80 F0 64 B0 01 00 32   Length = 0 BitCount = 0 ID = 1468
   1.392845 1  59e             Rx   d 8 00 00 0C 76 18 00 00 00   Length = 0 BitCount = 0 ID = 1438
   1.393074 1  55b             Rx   d 8 A4 40 AA 00 DF C0 13 9F   Length = 0 BitCount = 0 ID = 1371
   1.393323 1  5bc             Rx   d 8 3D 80 F0 64 B0 01 00 32   Length = 0 BitCount = 0 ID = 1468
   1.445637 1  390             Rx   d 8 08 00 00 00 00 80 21 0F   Length = 0 BitCount = 0 ID = 912
   1.445849 1  393             Rx   d 8 00 10 00 00 20 00 00 02   Length = 0 BitCount = 0 ID = 915
   1.492144 1  55b             Rx   d 8 A4 40 AA 00 DF C0 10 95   Length = 0 BitCount = 0 ID = 1371
   1.492344 1  59e             Rx   d 8 00 00 0C 76 18 00 00 00   Length = 0 BitCount = 0 ID = 1438
   1.492599 1  5bc             Rx   d 8 3D 80 F0 64 B0 01 00 32   Length = 0 BitCount = 0 ID = 1468
   1.492839 1  59e             Rx   d 8 00 00 0C 76 18 00 00 00   Length = 0 BitCount = 0 ID = 1438
   1.493068 1  55b             Rx   d 8 A4 40 AA 00 DF C0 10 95   Length = 0 BitCount = 0 ID = 1371
   1.493296 1  5bc             Rx   d 8 3D 80 F0 64 B0 01 00 32   Length = 0 BitCount = 0 ID = 1468
   1.545425 1  390             Rx   d 8 04 00 00 00 00 80 21 1C   Length = 0 BitCount = 0 ID = 912
   1.545644 1  393             Rx   d 8 00 10 00 00 20 00 00 13   Length = 0 BitCount = 0 ID = 915
   1.592146 1  55b             Rx   d 8 A4 40 AA 00 DF C0 11 10   Length = 0 BitCount = 0 ID = 1371
   1.592355 1  59e             Rx   d 8 00 00 0C 76 18 00 00 00   Length = 0 BitCount = 0 ID = 1438
   1.592607 1  5bc             Rx   d 8 3D 80 F0 64 B0 01 00 32   Length = 0 BitCount = 0 ID = 1468
   1.592850 1  59e             Rx   d 8 00 00 0C 76 18 00 00 00   Length = 0 BitCount = 0 ID = 1438
   1.593073 1  55b             Rx   d 8 A4 40 AA 00 DF C0 11 10   Length = 0 BitCount = 0 ID = 1371
   1.593296 1  5bc             Rx   d 8 3D 80 F0 64 B0 01 00 32   Length = 0 BitCount = 0 ID = 1468
   1.645596 1  390             Rx   d 8 04 00 00 00 00 80 21 2D   Length = 0 BitCount = 0 ID = 912
   1.645862 1  393             Rx   d 8 00 10 00 00 20 00 00 24   Length = 0 BitCount = 0 ID = 915
   1.692196 1  55b             Rx   d 8 A4 40 AA 00 DF C0 12 1A   Length = 0 BitCount = 0 ID = 1371
   1.692320 1  59e             Rx   d 8 00 00 0C 76 18 00 00 00   Length = 0 BitCount = 0 ID = 1438
   1.692680 1  5bc             Rx   d 8 3D 80 F0 64 B0 01 00 32   Length = 0 BitCount = 0 ID = 1468
   1.692866 1  59e             Rx   d 8 00 00 0C 76 18 00 00 00   Length = 0 BitCount = 0 ID = 1438
   1.693066 1  55b             Rx   d 8 A4 40 AA 00 DF C0 12 1A   Length = 0 BitCount = 0 ID = 1371
   1.693309 1  5bc             Rx   d 8 3D 80 F0 64 B0 01 00 32   Length = 0 BitCount = 0 ID = 1468
   1.745829 1  390             Rx   d 8 04 00 00 00 00 80 21 FA   Length = 0 BitCount = 0 ID = 912
   1.746010 1  393             Rx   d 8 00 10 00 00 20 00 00 35   Length = 0 BitCount = 0 ID = 915
   1.792199 1  55b             Rx   d 8 A4 40 AA 00 DF C0 13 9F   Length = 0 BitCount = 0 ID = 1371
   1.792314 1  59e             Rx   d 8 00 00 0C 76 18 00 00 00   Length = 0 BitCount = 0 ID = 1438
   1.792626 1  5bc             Rx   d 8 3D 80 F0 64 B0 01 00 32   Length = 0 BitCount = 0 ID = 1468
   1.792855 1  59e             Rx   d 8 00 00 0C 76 18 00 00 00   Length = 0 BitCount = 0 ID = 1438
   1.793077 1  55b             Rx   d 8 A4 40 AA 00 DF C0 13 9F   Length = 0 BitCount = 0 ID = 1371
   1.793305 1  5bc             Rx   d 8 3D 80 F0 64 B0 01 00 32   Length = 0 BitCount = 0 ID = 1468
   1.845759 1  390             Rx   d 8 04 00 00 00 00 80 21 C7   Length = 0 BitCount = 0 ID = 912
   1.845988 1  393             Rx   d 8 00 10 00 00 20 00 00 02   Length = 0 BitCount = 0 ID = 915
   1.892124 1  55b             Rx   d 8 A4 40 AA 00 DF C0 10 95   Length = 0 BitCount = 0 ID = 1371
   1.892345 1  59e             Rx   d 8 00 00 0C 76 18 00 00 00   Length = 0 BitCount = 0 ID = 1438
   1.892598 1  5bc             Rx   d 8 3D 80 F0 64 B0 01 00 32   Length = 0 BitCount = 0 ID = 1468
   1.892822 1  59e             Rx   d 8 00 00 0C 76 18 00 00 00   Length = 0 BitCount = 0 ID = 1438
   1.893043 1  55b             Rx   d 8 A4 40 AA 00 DF C0 10 95   Length = 0 BitCount = 0 ID = 1371
   1.893271 1  5bc             Rx   d 8 3D 80 F0 64 B0 01 00 32   Length = 0 BitCount = 0 ID = 1468
   1.945797 1  390             Rx   d 8 04 00 00 00 00 80 21 D8   Length = 0 BitCount = 0 ID = 912
   1.946016 1  393             Rx   d 8 00 10 00 00 20 00 00 13   Length = 0 BitCount = 0 ID = 915
   1.992134 1  55b             Rx   d 8 A4 40 AA 00 DF C0 11 10   Length = 0 BitCount = 0 ID = 1371
   1.992361 1  59e             Rx   d 8 00 00 0C 76 18 00 00 00   Length = 0 BitCount = 0 ID = 1438
   1.992615 1  5bc             Rx   d 8 3D 80 F0 64 B0 01 00 32   Length = 0 BitCount = 0 ID = 1468
   1.992860 1  59e             Rx   d 8 00 00 0C 76 18 00 00 00   Length = 0 BitCount = 0 ID = 1438
   1.993099 1  55b             Rx   d 8 A4 40 AA 00 DF C0 11 10   Length = 0 BitCount = 0 ID = 1371
   1.993314 1  5bc             Rx   d 8 3D 80 F0 64 B0 01 00 32   Length = 0 BitCount = 0 ID = 1468
   2.045997 1  390             Rx   d 8 04 00 00 00 00 80 21 E9   Length = 0 BitCount = 0 ID = 912
   2.046194 1  393             Rx   d 8 00 10 00 00 20 00 00 24   Length = 0 BitCount = 0 ID = 915
   2.092137 1  55b             Rx   d 8 A4 40 AA 00 DF C0 12 1A   Length = 0 BitCount = 0 ID = 1371
   2.092366 1  59e             Rx   d 8 00 00 0C 76 18 00 00 00   Length = 0 BitCount = 0 ID = 1438
   2.092605 1  5bc             Rx   d 8 3D 80 F0 64 B0 01 00 32   Length = 0 BitCount = 0 ID = 1468
   2.092820 1  59e             Rx   d 8 00 00 0C 76 18 00 00 00   Length = 0 BitCount = 0 ID = 1438
   2.093071 1  55b             Rx   d 8 A4 40 AA 00 DF C0 12 1A   Length = 0 BitCount = 0 ID = 1371
   2.093324 1  5bc             Rx   d 8 3D 80 F0 64 B0 01 00 32   Length = 0 BitCount = 0 ID = 1468
   2.146093 1  390             Rx   d 8 04 00 00 00 00 80 21 FA   Length = 0 BitCount = 0 ID = 912
   2.146265 1  393             Rx   d 8 00 10 00 00 20 00 00 35   Length = 0 BitCount = 0 ID = 915
   2.192145 1  55b             Rx   d 8 A4 40 AA 00 DF C0 13 9F   Length = 0 BitCount = 0 ID = 1371
   2.192371 1  59e             Rx   d 8 00 00 0C 76 18 00 00 00   Length = 0 BitCount = 0 ID = 1438
   2.192623 1  5bc             Rx   d 8 3D 80 F0 64 B0 01 00 32   Length = 0 BitCount = 0 ID = 1468
   2.192879 1  59e             Rx   d 8 00 00 0C 76 18 00 00 00   Length = 0 BitCount = 0 ID = 1438
   2.193094 1  55b             Rx   d 8 A4 40 AA 00 DF C0 13 9F   Length = 0 BitCount = 0 ID = 1371
   2.193322 1  5bc             Rx   d 8 3D 80 F0 64 B0 01 00 32   Length = 0 BitCount = 0 ID = 1468
   2.246279 1  390             Rx   d 8 04 00 00 00 00 80 21 C7   Length = 0 BitCount = 0 ID = 912
   2.246527 1  393             Rx   d 8 00 10 00 00 20 00 00 02   Length = 0 BitCount = 0 ID = 915
   2.292145 1  55b             Rx   d 8 A4 40 AA 00 DF C0 10 95   Length = 0 BitCount = 0 ID = 1371
   2.292361 1  59e             Rx   d 8 00 00 0C 76 18 00 00 00   Length = 0 BitCount = 0 ID = 1438
   2.292545 1  5bc             Rx   d 8 3D 80 F0 64 B0 01 00 32   Length = 0 BitCount = 0 ID = 1468
   2.292870 1  59e             Rx   d 8 00 00 0C 76 18 00 00 00   Length = 0 BitCount = 0 ID = 1438
   2.293099 1  55b             Rx   d 8 A4 40 AA 00 DF C0 10 95   Length = 0 BitCount = 0 ID = 1371
   2.293345 1  5bc             Rx   d 8 3D 80 F0 64 B0 01 00 32   Length = 0 BitCount = 0 ID = 1468
   2.346275 1  390             Rx   d 8 04 00 00 00 00 80 21 D8   Length = 0 BitCount = 0 ID = 912
   2.346506 1  393             Rx   d 8 00 10 00 00 20 00 00 13   Length = 0 BitCount = 0 ID = 915
   2.392150 1  55b             Rx   d 8 A4 40 AA 00 DF C0 11 10   Length = 0 BitCount = 0 ID = 1371
   2.392424 1  59e             Rx   d 8 00 00 0C 76 18 00 00 00   Length = 0 BitCount = 0 ID = 1438
   2.392613 1  5bc             Rx   d 8 3D 80 F0 64 B0 01 00 32   Length = 0 BitCount = 0 ID = 1468
   2.392874 1  59e             Rx   d 8 00 00 0C 76 18 00 00 00   Length = 0 BitCount = 0 ID = 1438
   2.393103 1  55b             Rx   d 8 A4 40 AA 00 DF C0 11 10   Length = 0 BitCount = 0 ID = 1371
   2.393350 1  5bc             Rx   d 8 3D 80 F0 64 B0 01 00 32   Length = 0 BitCount = 0 ID = 1468
   2.446406 1  390             Rx   d 8 04 00 00 00 00 80 21 E9   Length = 0 BitCount = 0 ID = 912
   2.446658 1  393             Rx   d 8 00 10 00 00 20 00 00 24   Length = 0 BitCount = 0 ID = 915
   2.492132 1  55b             Rx   d 8 A4 40 AA 00 DF C0 12 1A   Length = 0 BitCount = 0 ID = 1371
   2.492354 1  59e             Rx   d 8 00 00 0C 76 18 00 00 00   Length = 0 BitCount = 0 ID = 1438
   2.492586 1  5bc             Rx   d 8 3D 80 F0 64 B0 01 00 32   Length = 0 BitCount = 0 ID = 1468
   2.492862 1  59e             Rx   d 8 00 00 0C 76 18 00 00 00   Length = 0 BitCount = 0 ID = 1438
   2.493063 1  55b             Rx   d 8 A4 40 AA 00 DF C0 12 1A   Length = 0 BitCount = 0 ID = 1371
   2.493317 1  5bc             Rx   d 8 3D 80 F0 64 B0 01 00 32   Length = 0 BitCount = 0 ID = 1468
   2.546544 1  390             Rx   d 8 04 00 00 00 00 80 21 FA   Length = 0 BitCount = 0 ID = 912
   2.546667 1  393             Rx   d 8 00 10 00 00 20 00 00 35   Length = 0 BitCount = 0 ID = 915
   2.592180 1  55b             Rx   d 8 A4 40 AA 00 DF C0 13 9F   Length = 0 BitCount = 0 ID = 1371
   2.592384 1  59e             Rx   d 8 00 00 0C 76 18 00 00 00   Length = 0 BitCount = 0 ID = 1438
   2.592634 1  5bc             Rx   d 8 3D 80 F0 64 B0 01 00 32   Length = 0 BitCount = 0 ID = 1468
   2.592878 1  59e             Rx   d 8 00 00 0C 76 18 00 00 00   Length = 0 BitCount = 0 ID = 1438
   2.593106 1  55b             Rx   d 8 A4 40 AA 00 DF C0 13 9F   Length = 0 BitCount = 0 ID = 1371
   2.593334 1  5bc             Rx   d 8 3D 80 F0 64 B0 01 00 32   Length = 0 BitCount = 0 ID = 1468
   2.646563 1  390             Rx   d 8 04 00 00 00 00 80 21 C7   Length = 0 BitCount = 0 ID = 912
   2.646905 1  393             Rx   d 8 00 10 00 00 20 00 00 02   Length = 0 BitCount = 0 ID = 915
   2.692159 1  55b             Rx   d 8 A4 40 AA 00 DF C0 10 95   Length = 0 BitCount = 0 ID = 1371
   2.692358 1  59e             Rx   d 8 00 00 0C 76 18 00 00 00   Length = 0 BitCount = 0 ID = 1438
   2.692566 1  5bc             Rx   d 8 3D 80 F0 64 B0 01 00 32   Length = 0 BitCount = 0 ID = 1468
   2.692836 1  59e             Rx   d 8 00 00 0C 76 18 00 00 00   Length = 0 BitCount = 0 ID = 1438
   2.693040 1  55b             Rx   d 8 A4 40 AA 00 DF C0 10 95   Length = 0 BitCount = 0 ID = 1371
   2.693291 1  5bc             Rx   d 8 3D 80 F0 64 B0 01 00 32   Length = 0 BitCount = 0 ID = 1468
   2.746839 1  390             Rx   d 8 04 00 00 00 00 80 21 D8   Length = 0 BitCount = 0 ID = 912
   2.747032 1  393             Rx   d 8 00 10 00 00 20 00 00 13   Length = 0 BitCount = 0 ID = 915
   2.792162 1  55b             Rx   d 8 A4 40 AA 00 DF C0 11 10   Length = 0 BitCount = 0 ID = 1371
   2.792386 1  59e             Rx   d 8 00 00 0C 76 18 00 00 00   Length = 0 BitCount = 0 ID = 1438
   2.792615 1  5bc             Rx   d 8 3D 80 F0 64 B0 01 00 32   Length = 0 BitCount = 0 ID = 1468
   2.792885 1  59e             Rx   d 8 00 00 0C 76 18 00 00 00   Length = 0 BitCount = 0 ID = 1438
   2.793086 1  55b             Rx   d 8 A4 40 AA 00 DF C0 11 10   Length = 0 BitCount = 0 ID = 1371
   2.793339 1  5bc             Rx   d 8 3D 80 F0 64 B0 01 00 32   Length = 0 BitCount = 0 ID = 1468
   2.846782 1  390             Rx   d 8 04 00 00 00 00 80 21 E9   Length = 0 BitCount = 0 ID = 912
   2.847023 1  393             Rx   d 8 00 10 00 00 20 00 00 24   Length = 0 BitCount = 0 ID = 915
   2.892104 1  55b             Rx   d 8 A4 40 AA 00 DF C0 12 1A   Length = 0 BitCount = 0 ID = 1371
   2.892395 1  59e             Rx   d 8 00 00 0C 76 18 00 00 00   Length = 0 BitCount = 0 ID = 1438
   2.892641 1  5bc             Rx   d 8 3D 80 F0 64 B0 01 00 32   Length = 0 BitCount = 0 ID = 1468
   2.892893 1  59e             Rx   d 8 00 00 0C 76 18 00 00 00   Length = 0 BitCount = 0 ID = 1438
   2.893073 1  55b             Rx   d 8 A4 40 AA 00 DF C0 12 1A   Length = 0 BitCount = 0 ID = 1371
   2.893290 1  5bc             Rx   d 8 3D 80 F0 64 B0 01 00 32   Length = 0 BitCount = 0 ID = 1468
   2.946925 1  390             Rx   d 8 04 00 00 00 00 80 21 FA   Length = 0 BitCount = 0 ID = 912
   2.947147 1  393             Rx   d 8 00 10 00 00 20 00 00 35   Length = 0 BitCount = 0 ID = 915
   2.992107 1  55b             Rx   d 8 A4 40 AA 00 DF C0 13 9F   Length = 0 BitCount = 0 ID = 1371
   2.992353 1  59e             Rx   d 8 00 00 0C 76 18 00 00 00   Length = 0 BitCount = 0 ID = 1438
   2.992586 1  5bc             Rx   d 8 3D 80 F0 64 B0 01 00 32   Length = 0 BitCount = 0 ID = 1468
   2.992850 1  59e             Rx   d 8 00 00 0C 76 18 00 00 00   Length = 0 BitCount = 0 ID = 1438
   2.993046 1  55b             Rx   d 8 A4 40 AA 00 DF C0 13 9F   Length = 0 BitCount = 0 ID = 1371
   2.993299 1  5bc             Rx   d 8 3D 80 F0 64 B0 01 00 32   Length = 0 BitCount = 0 ID = 1468
   3.047079 1  390             Rx   d 8 04 00 00 00 00 80 21 C7   Length = 0 BitCount = 0 ID = 912
   3.047245 1  393             Rx   d 8 00 10 00 00 20 00 00 02   Length = 0 BitCount = 0 ID = 915
   3.092187 1  55b             Rx   d 8 A4 40 AA 00 DF C0 10 95   Length = 0 BitCount = 0 ID = 1371
   3.092414 1  59e             Rx   d 8 00 00 0C 76 18 00 00 00   Length = 0 BitCount = 0 ID = 1438
   3.092643 1  5bc             Rx   d 8 3D 80 F0 64 B0 01 00 32   Length = 0 BitCount = 0 ID = 1468
   3.092889 1  59e             Rx   d 8 00 00 0C 76 18 00 00 00   Length = 0 BitCount = 0 ID = 1438
   3.093088 1  55b             Rx   d 8 A4 40 AA 00 DF C0 10 95   Length = 0 BitCount = 0 ID = 1371
   3.093369 1  5bc             Rx   d 8 3D 80 F0 64 B0 01 00 32   Length = 0 BitCount = 0 ID = 1468
   3.147141 1  390             Rx   d 8 04 00 00 00 00 80 21 D8   Length = 0 BitCount = 0 ID = 912
   3.147357 1  393             Rx   d 8 00 10 00 00 20 00 00 13   Length = 0 BitCount = 0 ID = 915
   3.192242 1  55b             Rx   d 8 A4 40 AA 00 DF C0 11 10   Length = 0 BitCount = 0 ID = 1371
   3.192408 1  59e             Rx   d 8 00 00 0C 76 18 00 00 00   Length = 0 BitCount = 0 ID = 1438
   3.192635 1  5bc             Rx   d 8 3D 80 F0 64 B0 01 00 32   Length = 0 BitCount = 0 ID = 1468
   3.192917 1  59e             Rx   d 8 00 00 0C 76 18 00 00 00   Length = 0 BitCount = 0 ID = 1438
   3.193119 1  55b             Rx   d 8 A4 40 AA 00 DF C0 11 10   Length = 0 BitCount = 0 ID = 1371
   3.193325 1  5bc             Rx   d 8 3D 80 F0 64 B0 01 00 32   Length = 0 BitCount = 0 ID = 1468
   3.247436 1  390             Rx   d 8 04 00 00 00 00 80 21 E9   Length = 0 BitCount = 0 ID = 912
   3.247569 1  393             Rx   d 8 00 10 00 00 20 00 00 24   Length = 0 BitCount = 0 ID = 915
   3.292111 1  55b             Rx   d 8 A4 40 AA 00 DF C0 12 1A   Length = 0 BitCount = 0 ID = 1371
   3.292337 1  59e             Rx   d 8 00 00 0C 76 18 00 00 00   Length = 0 BitCount = 0 ID = 1438
   3.292567 1  5bc             Rx   d 8 3D 80 F0 64 B0 01 00 32   Length = 0 BitCount = 0 ID = 1468
   3.292847 1  59e             Rx   d 8 00 00 0C 76 18 00 00 00   Length = 0 BitCount = 0 ID = 1438
   3.293050 1  55b             Rx   d 8 A4 40 AA 00 DF C0 12 1A   Length = 0 BitCount = 0 ID = 1371
   3.293278 1  5bc             Rx   d 8 3D 80 F0 64 B0 01 00 32   Length = 0 BitCount = 0 ID = 1468
   3.347357 1  390             Rx   d 8 04 00 00 00 00 80 21 FA   Length = 0 BitCount = 0 ID = 912
   3.347523 1  393             Rx   d 8 00 10 00 00 20 00 00 35   Length = 0 BitCount = 0 ID = 915
   3.392196 1  55b             Rx   d 8 A4 40 AA 00 DF C0 13 9F   Length = 0 BitCount = 0 ID = 1371
   3.392398 1  59e             Rx   d 8 00 00 0C 76 18 00 00 00   Length = 0 BitCount = 0 ID = 1438
   3.392589 1  5bc             Rx   d 8 3D 80 F0 64 B0 01 00 32   Length = 0 BitCount = 0 ID = 1468
   3.392933 1  59e             Rx   d 8 00 00 0C 76 18 00 00 00   Length = 0 BitCount = 0 ID = 1438
   3.393100 1  55b             Rx   d 8 A4 40 AA 00 DF C0 13 9F   Length = 0 BitCount = 0 ID = 1371
   3.393362 1  5bc             Rx   d 8 3D 80 F0 64 B0 01 00 32   Length = 0 BitCount = 0 ID = 1468
   3.447495 1  390             Rx   d 8 04 00 00 00 00 80 21 C7   Length = 0 BitCount = 0 ID = 912
   3.447676 1  393             Rx   d 8 00 10 00 00 20 00 00 02   Length = 0 BitCount = 0 ID = 915
   3.492194 1  55b             Rx   d 8 A4 40 AA 00 DF C0 10 95   Length = 0 BitCount = 0 ID = 1371
   3.492363 1  59e             Rx   d 8 00 00 0C 76 18 00 00 00   Length = 0 BitCount = 0 ID = 1438
   3.492643 1  5bc             Rx   d 8 3D 80 F0 64 B0 01 00 32   Length = 0 BitCount = 0 ID = 1468
   3.492891 1  59e             Rx   d 8 00 00 0C 76 18 00 00 00   Length = 0 BitCount = 0 ID = 1438
   3.493115 1  55b             Rx   d 8 A4 40 AA 00 DF C0 10 95   Length = 0 BitCount = 0 ID = 1371
   3.493372 1  5bc             Rx   d 8 3D 80 F0 64 B0 01 00 32   Length = 0 BitCount = 0 ID = 1468
   3.592162 1  55b             Rx   d 8 A4 40 AA 00 DF C0 11 10   Length = 0 BitCount = 0 ID = 1371
   3.592393 1  59e             Rx   d 8 00 00 0C 76 18 00 00 00   Length = 0 BitCount = 0 ID = 1438
   3.592659 1  5bc             Rx   d 8 3D 80 F0 64 B0 01 00 32   Length = 0 BitCount = 0 ID = 1468
   3.592912 1  59e             Rx   d 8 00 00 0C 76 18 00 00 00   Length = 0 BitCount = 0 ID = 1438
   3.593115 1  55b             Rx   d 8 A4 40 AA 00 DF C0 11 10   Length = 0 BitCount = 0 ID = 1371
   3.593335 1  5bc             Rx   d 8 3D 80 F0 64 B0 01 00 32   Length = 0 BitCount = 0 ID = 1468
   3.692163 1  55b             Rx   d 8 A4 40 AA 00 DF C0 12 1A   Length = 0 BitCount = 0 ID = 1371
   3.692384 1  59e             Rx   d 8 00 00 0C 76 18 00 00 00   Length = 0 BitCount = 0 ID = 1438
   3.692646 1  5bc             Rx   d 8 3D 80 F0 64 B0 01 00 32   Length = 0 BitCount = 0 ID = 1468
   3.692922 1  59e             Rx   d 8 00 00 0C 76 18 00 00 00   Length = 0 BitCount = 0 ID = 1438
   3.693114 1  55b             Rx   d 8 A4 40 AA 00 DF C0 12 1A   Length = 0 BitCount = 0 ID = 1371
   3.693328 1  5bc             Rx   d 8 3D 80 F0 64 B0 01 00 32   Length = 0 BitCount = 0 ID = 1468
   3.792170 1  55b             Rx   d 8 A4 40 AA 00 DF C0 13 9F   Length = 0 BitCount = 0 ID = 1371
   3.792415 1  59e             Rx   d 8 00 00 0C 76 18 00 00 00   Length = 0 BitCount = 0 ID = 1438
   3.792649 1  5bc             Rx   d 8 3D 80 F0 64 B0 01 00 32   Length = 0 BitCount = 0 ID = 1468
   3.792918 1  59e             Rx   d 8 00 00 0C 76 18 00 00 00   Length = 0 BitCount = 0 ID = 1438
   3.793123 1  55b             Rx   d 8 A4 40 AA 00 DF C0 13 9F   Length = 0 BitCount = 0 ID = 1371
   3.793367 1  5bc             Rx   d 8 3D 80 F0 64 B0 01 00 32   Length = 0 BitCount = 0 ID = 1468
   3.892192 1  55b             Rx   d 8 A4 40 AA 00 DF C0 10 95   Length = 0 BitCount = 0 ID = 1371
   3.892393 1  59e             Rx   d 8 00 00 0C 76 18 00 00 00   Length = 0 BitCount = 0 ID = 1438
   3.892644 1  5bc             Rx   d 8 3D 80 F0 64 B0 01 00 32   Length = 0 BitCount = 0 ID = 1468
   3.892913 1  59e             Rx   d 8 00 00 0C 76 18 00 00 00   Length = 0 BitCount = 0 ID = 1438
   3.893116 1  55b             Rx   d 8 A4 40 AA 00 DF C0 10 95   Length = 0 BitCount = 0 ID = 1371
   3.893343 1  5bc             Rx   d 8 3D 80 F0 64 B0 01 00 32   Length = 0 BitCount = 0 ID = 1468
   3.992180 1  55b             Rx   d 8 A4 40 AA 00 DF C0 11 10   Length = 0 BitCount = 0 ID = 1371
   3.992391 1  59e             Rx   d 8 00 00 0C 76 18 00 00 00   Length = 0 BitCount = 0 ID = 1438
   3.992624 1  5bc             Rx   d 8 3D 80 F0 64 B0 01 00 32   Length = 0 BitCount = 0 ID = 1468
   3.992886 1  59e             Rx   d 8 00 00 0C 76 18 00 00 00   Length = 0 BitCount = 0 ID = 1438
   3.993122 1  55b             Rx   d 8 A4 40 AA 00 DF C0 11 10   Length = 0 BitCount = 0 ID = 1371
   3.993347 1  5bc             Rx   d 8 3D 80 F0 64 B0 01 00 32   Length = 0 BitCount = 0 ID = 1468
   4.092272 1  55b             Rx   d 8 A4 40 AA 00 DF C0 12 1A   Length = 0 BitCount = 0 ID = 1371
   4.092439 1  59e             Rx   d 8 00 00 0C 76 18 00 00 00   Length = 0 BitCount = 0 ID = 1438
   4.092659 1  5bc             Rx   d 8 3D 80 F0 64 B0 01 00 32   Length = 0 BitCount = 0 ID = 1468
   4.092912 1  59e             Rx   d 8 00 00 0C 76 18 00 00 00   Length = 0 BitCount = 0 ID = 1438
   4.093161 1  55b             Rx   d 8 A4 40 AA 00 DF C0 12 1A   Length = 0 BitCount = 0 ID = 1371
   4.093391 1  5bc             Rx   d 8 3D 80 F0 64 B0 01 00 32   Length = 0 BitCount = 0 ID = 1468
   4.192276 1  55b             Rx   d 8 A4 40 AA 00 DF C0 13 9F   Length = 0 BitCount = 0 ID = 1371
   4.192446 1  59e             Rx   d 8 00 00 0C 76 18 00 00 00   Length = 0 BitCount = 0 ID = 1438
   4.192662 1  5bc             Rx   d 8 3D 80 F0 64 B0 01 00 32   Length = 0 BitCount = 0 ID = 1468
   4.192922 1  59e             Rx   d 8 00 00 0C 76 18 00 00 00   Length = 0 BitCount = 0 ID = 1438
   4.193102 1  55b             Rx   d 8 A4 40 AA 00 DF C0 13 9F   Length = 0 BitCount = 0 ID = 1371
   4.193405 1  5bc             Rx   d 8 3D 80 F0 64 B0 01 00 32   Length = 0 BitCount = 0 ID = 1468
   4.292203 1  55b             Rx   d 8 A4 40 AA 00 DF C0 10 95   Length = 0 BitCount = 0 ID = 1371
   4.292402 1  59e             Rx   d 8 00 00 0C 76 18 00 00 00   Length = 0 BitCount = 0 ID = 1438
   4.292656 1  5bc             Rx   d 8 3D 80 F0 64 B0 01 00 32   Length = 0 BitCount = 0 ID = 1468
   4.292922 1  59e             Rx   d 8 00 00 0C 76 18 00 00 00   Length = 0 BitCount = 0 ID = 1438
   4.293097 1  55b             Rx   d 8 A4 40 AA 00 DF C0 10 95   Length = 0 BitCount = 0 ID = 1371
   4.293319 1  5bc             Rx   d 8 3D 80 F0 64 B0 01 00 32   Length = 0 BitCount = 0 ID = 1468
   4.392151 1  55b             Rx   d 8 A4 40 AA 00 DF C0 11 10   Length = 0 BitCount = 0 ID = 1371
   4.392367 1  59e             Rx   d 8 00 00 0C 76 18 00 00 00   Length = 0 BitCount = 0 ID = 1438
   4.392610 1  5bc             Rx   d 8 3D 80 F0 64 B0 01 00 32   Length = 0 BitCount = 0 ID = 1468
   4.392886 1  59e             Rx   d 8 00 00 0C 76 18 00 00 00   Length = 0 BitCount = 0 ID = 1438
   4.393091 1  55b             Rx   d 8 A4 40 AA 00 DF C0 11 10   Length = 0 BitCount = 0 ID = 1371
   4.393320 1  5bc             Rx   d 8 3D 80 F0 64 B0 01 00 32   Length = 0 BitCount = 0 ID = 1468
   4.492154 1  55b             Rx   d 8 A4 40 AA 00 DF C0 12 1A   Length = 0 BitCount = 0 ID = 1371
   4.492370 1  59e             Rx   d 8 00 00 0C 76 18 00 00 00   Length = 0 BitCount = 0 ID = 1438
   4.492621 1  5bc             Rx   d 8 3D 80 F0 64 B0 01 00 32   Length = 0 BitCount = 0 ID = 1468
   4.492888 1  59e             Rx   d 8 00 00 0C 76 18 00 00 00   Length = 0 BitCount = 0 ID = 1438
   4.493066 1  55b             Rx   d 8 A4 40 AA 00 DF C0 12 1A   Length = 0 BitCount = 0 ID = 1371
   4.493334 1  5bc             Rx   d 8 3D 80 F0 64 B0 01 00 32   Length = 0 BitCount = 0 ID = 1468
   4.508789 1  390             Rx   d 8 04 00 00 00 00 80 21 1C   Length = 0 BitCount = 0 ID = 912
   4.509014 1  393             Rx   d 8 00 10 00 00 20 00 00 13   Length = 0 BitCount = 0 ID = 915
   4.592173 1  55b             Rx   d 8 A4 40 AA 00 DF C0 13 9F   Length = 0 BitCount = 0 ID = 1371
   4.592391 1  59e             Rx   d 8 00 00 0C 76 18 00 00 00   Length = 0 BitCount = 0 ID = 1438
   4.592643 1  5bc             Rx   d 8 3D 80 F0 64 B0 01 00 32   Length = 0 BitCount = 0 ID = 1468
   4.592915 1  59e             Rx   d 8 00 00 0C 76 18 00 00 00   Length = 0 BitCount = 0 ID = 1438
   4.593102 1  55b             Rx   d 8 A4 40 AA 00 DF C0 13 9F   Length = 0 BitCount = 0 ID = 1371
   4.593361 1  5bc             Rx   d 8 3D 80 F0 64 B0 01 00 32   Length = 0 BitCount = 0 ID = 1468
   4.608776 1  390             Rx   d 8 04 00 00 00 00 84 21 21   Length = 0 BitCount = 0 ID = 912
   4.608942 1  393             Rx   d 8 00 10 00 00 20 00 00 24   Length = 0 BitCount = 0 ID = 915
   4.692235 1  55b             Rx   d 8 A4 40 AA 00 DF C0 10 95   Length = 0 BitCount = 0 ID = 1371
   4.692408 1  59e             Rx   d 8 00 00 0C 76 18 00 00 00   Length = 0 BitCount = 0 ID = 1438
   4.692698 1  5bc             Rx   d 8 3D 80 F0 64 B0 01 00 32   Length = 0 BitCount = 0 ID = 1468
   4.692966 1  59e             Rx   d 8 00 00 0C 76 18 00 00 00   Length = 0 BitCount = 0 ID = 1438
   4.693146 1  55b             Rx   d 8 A4 40 AA 00 DF C0 10 95   Length = 0 BitCount = 0 ID = 1371
   4.693353 1  5bc             Rx   d 8 3D 80 F0 64 B0 01 00 32   Length = 0 BitCount = 0 ID = 1468
   4.708900 1  390             Rx   d 8 06 00 00 00 00 88 21 38   Length = 0 BitCount = 0 ID = 912
   4.709099 1  393             Rx   d 8 00 10 00 00 20 00 00 35   Length = 0 BitCount = 0 ID = 915
   4.778866 1  1da             Rx   d 8 1F 40 00 00 00 00 80 76   Length = 0 BitCount = 0 ID = 474
   4.788987 1  1da             Rx   d 8 1F 00 00 00 00 00 81 51   Length = 0 BitCount = 0 ID = 474
   4.792222 1  55b             Rx   d 8 A4 40 AA 00 DF C0 11 10   Length = 0 BitCount = 0 ID = 1371
   4.792439 1  59e             Rx   d 8 00 00 0C 76 18 00 00 00   Length = 0 BitCount = 0 ID = 1438
   4.792672 1  5bc             Rx   d 8 3D 80 F0 64 B0 01 00 32   Length = 0 BitCount = 0 ID = 1468
   4.792939 1  59e             Rx   d 8 00 00 0C 76 18 00 00 00   Length = 0 BitCount = 0 ID = 1438
   4.793100 1  55b             Rx   d 8 A4 40 AA 00 DF C0 11 10   Length = 0 BitCount = 0 ID = 1371
   4.793353 1  5bc             Rx   d 8 3D 80 F0 64 B0 01 00 32   Length = 0 BitCount = 0 ID = 1468
   4.798870 1  1da             Rx   d 8 1F 00 00 00 00 00 82 5B   Length = 0 BitCount = 0 ID = 474
   4.808872 1  1da             Rx   d 8 1F 40 00 00 00 00 83 7C   Length = 0 BitCount = 0 ID = 474
   4.809075 1  390             Rx   d 8 06 00 00 60 00 88 21 C7   Length = 0 BitCount = 0 ID = 912
   4.809347 1  393             Rx   d 8 00 10 00 00 20 00 00 02   Length = 0 BitCount = 0 ID = 915
   4.818905 1  1da             Rx   d 8 1F 40 00 00 00 00 80 76   Length = 0 BitCount = 0 ID = 474
   4.828956 1  1da             Rx   d 8 1F 00 00 00 00 00 81 51   Length = 0 BitCount = 0 ID = 474
   4.838900 1  1da             Rx   d 8 1F 00 00 00 00 00 82 5B   Length = 0 BitCount = 0 ID = 474
   4.848916 1  1da             Rx   d 8 1F 40 00 00 00 00 83 7C   Length = 0 BitCount = 0 ID = 474
   4.858878 1  1da             Rx   d 8 1F 40 00 00 00 00 80 76   Length = 0 BitCount = 0 ID = 474
   4.868920 1  1da             Rx   d 8 1F 00 00 00 00 00 81 51   Length = 0 BitCount = 0 ID = 474
   4.869082 1  55a             Rx   d 8 00 3C 3B 00 5F 00 93 08   Length = 0 BitCount = 0 ID = 1370
   4.878878 1  1da             Rx   d 8 1F 00 00 00 00 00 82 5B   Length = 0 BitCount = 0 ID = 474
   4.888890 1  1da             Rx   d 8 1F 40 00 00 00 00 03 F5   Length = 0 BitCount = 0 ID = 474
   4.892183 1  55b             Rx   d 8 A4 40 AA 00 DF C0 12 1A   Length = 0 BitCount = 0 ID = 1371
   4.892390 1  59e             Rx   d 8 00 00 0C 76 18 00 00 00   Length = 0 BitCount = 0 ID = 1438
   4.892648 1  5bc             Rx   d 8 3D 80 F0 64 B0 01 00 32   Length = 0 BitCount = 0 ID = 1468
   4.892922 1  59e             Rx   d 8 00 00 0C 76 18 00 00 00   Length = 0 BitCount = 0 ID = 1438
   4.893097 1  55b             Rx   d 8 A4 40 AA 00 DF C0 12 1A   Length = 0 BitCount = 0 ID = 1371
   4.893334 1  5bc             Rx   d 8 3D 80 F0 64 B0 01 00 32   Length = 0 BitCount = 0 ID = 1468
   4.898874 1  1da             Rx   d 8 1F 40 00 00 00 00 00 FF   Length = 0 BitCount = 0 ID = 474
   4.908856 1  1da             Rx   d 8 1F 00 00 00 00 00 01 D8   Length = 0 BitCount = 0 ID = 474
   4.909108 1  390             Rx   d 8 06 00 00 60 00 88 21 D8   Length = 0 BitCount = 0 ID = 912
   4.909350 1  393             Rx   d 8 00 10 00 00 20 00 00 13   Length = 0 BitCount = 0 ID = 915
   4.918833 1  1da             Rx   d 8 1F 00 00 00 00 00 02 D2   Length = 0 BitCount = 0 ID = 474
   4.928888 1  1da             Rx   d 8 1F 40 00 00 00 00 03 F5   Length = 0 BitCount = 0 ID = 474
   4.938852 1  1da             Rx   d 8 1F 40 00 00 00 00 00 FF   Length = 0 BitCount = 0 ID = 474
   4.948869 1  1da             Rx   d 8 1F 00 00 00 00 00 01 D8   Length = 0 BitCount = 0 ID = 474
   4.958765 1  1da             Rx   d 8 1F 00 00 00 00 00 02 D2   Length = 0 BitCount = 0 ID = 474
   4.968876 1  1da             Rx   d 8 1F 40 00 00 00 00 03 F5   Length = 0 BitCount = 0 ID = 474
   4.969035 1  55a             Rx   d 8 00 3C 3B 00 5F 00 7B 08   Length = 0 BitCount = 0 ID = 1370
   4.978776 1  1da             Rx   d 8 1F 40 00 00 00 00 00 FF   Length = 0 BitCount = 0 ID = 474
   4.988764 1  1da             Rx   d 8 1F 00 00 00 00 00 01 D8   Length = 0 BitCount = 0 ID = 474
   4.992170 1  55b             Rx   d 8 A4 40 AA 00 DF C0 13 9F   Length = 0 BitCount = 0 ID = 1371
   4.992381 1  59e             Rx   d 8 00 00 0C 76 18 00 00 00   Length = 0 BitCount = 0 ID = 1438
   4.992632 1  5bc             Rx   d 8 3D 80 F0 64 B0 01 00 32   Length = 0 BitCount = 0 ID = 1468
   4.992918 1  59e             Rx   d 8 00 00 0C 76 18 00 00 00   Length = 0 BitCount = 0 ID = 1438
   4.993108 1  55b             Rx   d 8 A4 40 AA 00 DF C0 13 9F   Length = 0 BitCount = 0 ID = 1371
   4.993339 1  5bc             Rx   d 8 3D 80 F0 64 B0 01 00 32   Length = 0 BitCount = 0 ID = 1468
   4.998786 1  1da             Rx   d 8 1F 00 00 00 00 00 02 D2   Length = 0 BitCount = 0 ID = 474
   5.008768 1  1da             Rx   d 8 1F 40 00 00 00 00 03 F5   Length = 0 BitCount = 0 ID = 474
   5.009056 1  390             Rx   d 8 06 00 00 60 00 88 21 E9   Length = 0 BitCount = 0 ID = 912
   5.009282 1  393             Rx   d 8 00 10 00 00 20 00 00 24   Length = 0 BitCount = 0 ID = 915
   5.018781 1  1da             Rx   d 8 1F 40 00 00 00 00 00 FF   Length = 0 BitCount = 0 ID = 474
   5.028794 1  1da             Rx   d 8 26 00 00 00 00 00 01 77   Length = 0 BitCount = 0 ID = 474
   5.038797 1  1da             Rx   d 8 30 00 00 00 00 00 02 1F   Length = 0 BitCount = 0 ID = 474
   5.048759 1  1da             Rx   d 8 4A 40 00 00 00 00 03 DB   Length = 0 BitCount = 0 ID = 474
   5.058836 1  1da             Rx   d 8 65 40 00 00 00 00 00 1C   Length = 0 BitCount = 0 ID = 474
   5.068816 1  1da             Rx   d 8 7D 00 00 00 00 00 01 73   Length = 0 BitCount = 0 ID = 474
   5.069056 1  55a             Rx   d 8 00 3C 3B 00 5F 00 7B 08   Length = 0 BitCount = 0 ID = 1370
   5.078823 1  1da             Rx   d 8 88 00 00 00 00 00 02 3D   Length = 0 BitCount = 0 ID = 474
   5.084183 1  1db             Rx   d 8 7F E0 FF C6 7F 00 00 0D   Length = 0 BitCount = 0 ID = 475
   5.084429 1  1dc             Rx   d 8 FF FF FF FF 1F FF FC 6B   Length = 0 BitCount = 0 ID = 476
   5.088782 1  1da             Rx   d 8 96 40 00 00 00 00 03 40   Length = 0 BitCount = 0 ID = 474
   5.092184 1  55b             Rx   d 8 A4 40 AA 00 DF C0 10 95   Length = 0 BitCount = 0 ID = 1371
   5.092431 1  59e             Rx   d 8 00 00 0C 76 18 00 00 00   Length = 0 BitCount = 0 ID = 1438
   5.092659 1  5bc             Rx   d 8 3D 80 F0 64 B0 01 00 32   Length = 0 BitCount = 0 ID = 1468
   5.092978 1  59e             Rx   d 8 00 00 0C 76 18 00 00 00   Length = 0 BitCount = 0 ID = 1438
   5.093169 1  55b             Rx   d 8 A4 40 AA 00 DF C0 10 95   Length = 0 BitCount = 0 ID = 1371
   5.093391 1  5bc             Rx   d 8 3D 80 F0 64 B0 01 00 32   Length = 0 BitCount = 0 ID = 1468
   5.094170 1  1db             Rx   d 8 FF 80 FF C6 7F 00 01 F1   Length = 0 BitCount = 0 ID = 475
   5.094373 1  1dc             Rx   d 8 FF FF FF FF 01 1C E5 62   Length = 0 BitCount = 0 ID = 476
   5.098782 1  1da             Rx   d 8 A0 40 00 00 00 00 00 C8   Length = 0 BitCount = 0 ID = 474
   5.104190 1  1db             Rx   d 8 FF A0 FF C6 7F 00 02 AA   Length = 0 BitCount = 0 ID = 475
   5.104438 1  1dc             Rx   d 8 FF FF FF FF 05 58 C6 83   Length = 0 BitCount = 0 ID = 476
   5.108812 1  1da             Rx   d 8 A5 00 00 00 00 00 01 F4   Length = 0 BitCount = 0 ID = 474
   5.109236 1  390             Rx   d 8 06 00 00 60 00 88 21 FA   Length = 0 BitCount = 0 ID = 912
   5.109442 1  393             Rx   d 8 00 10 00 00 20 00 00 35   Length = 0 BitCount = 0 ID = 915
   5.114187 1  1db             Rx   d 8 FF A0 FF C6 7F 00 03 2F   Length = 0 BitCount = 0 ID = 475
   5.114425 1  1dc             Rx   d 8 FF FF FF FF 08 C0 C3 13   Length = 0 BitCount = 0 ID = 476
   5.118815 1  1da             Rx   d 8 AA 00 00 00 00 00 02 D3   Length = 0 BitCount = 0 ID = 474
   5.124185 1  1db             Rx   d 8 FF A0 FF C6 7F 00 00 25   Length = 0 BitCount = 0 ID = 475
   5.124424 1  1dc             Rx   d 8 FF FF FF FF 0C C8 C8 6F   Length = 0 BitCount = 0 ID = 476
   5.128811 1  1da             Rx   d 8 B0 40 00 00 00 00 03 B2   Length = 0 BitCount = 0 ID = 474
   5.134216 1  1db             Rx   d 8 FF C0 FF C6 7F 00 01 53   Length = 0 BitCount = 0 ID = 475
   5.134389 1  1dc             Rx   d 8 FF FF FF FF 01 1C E5 62   Length = 0 BitCount = 0 ID = 476
   5.138806 1  1da             Rx   d 8 B2 40 00 00 00 00 00 B6   Length = 0 BitCount = 0 ID = 474
   5.144231 1  1db             Rx   d 8 FF C0 FF C6 7F 00 02 59   Length = 0 BitCount = 0 ID = 475
   5.144432 1  1dc             Rx   d 8 FF FF FF FF 05 58 C6 83   Length = 0 BitCount = 0 ID = 476
   5.148789 1  1da             Rx   d 8 B4 00 00 00 00 00 01 83   Length = 0 BitCount = 0 ID = 474
   5.154224 1  1db             Rx   d 8 FF C0 FF C6 7F 00 03 DC   Length = 0 BitCount = 0 ID = 475
   5.154434 1  1dc             Rx   d 8 FF FF FF FF 08 C0 C3 13   Length = 0 BitCount = 0 ID = 476
   5.158806 1  1da             Rx   d 8 B5 00 00 00 00 00 02 8E   Length = 0 BitCount = 0 ID = 474
   5.164223 1  1db             Rx   d 8 FF C0 FF C6 7F 00 00 D6   Length = 0 BitCount = 0 ID = 475
   5.164437 1  1dc             Rx   d 8 FF FF FF FF 0C C8 C8 6F   Length = 0 BitCount = 0 ID = 476
   5.168846 1  1da             Rx   d 8 B6 40 00 00 00 00 03 A0   Length = 0 BitCount = 0 ID = 474
   5.169054 1  55a             Rx   d 8 00 3C 3B 00 5F 00 7B 08   Length = 0 BitCount = 0 ID = 1370
   5.174452 1  1db             Rx   d 8 FF C0 FF C6 7F 00 01 53   Length = 0 BitCount = 0 ID = 475
   5.174634 1  1dc             Rx   d 8 FF FF FF FF 01 1C E5 62   Length = 0 BitCount = 0 ID = 476
   5.174978 1  55b             Rx   d 8 A5 00 AA 00 FF C0 10 91   Length = 0 BitCount = 0 ID = 1371
   5.175130 1  5bc             Rx   d 8 FF C0 FF FF A4 03 FF FF   Length = 0 BitCount = 0 ID = 1468
   5.178857 1  1da             Rx   d 8 B7 40 00 00 00 00 00 AD   Length = 0 BitCount = 0 ID = 474
   5.184209 1  1db             Rx   d 8 FF C0 FF C6 7F 00 02 59   Length = 0 BitCount = 0 ID = 475
   5.184406 1  1dc             Rx   d 8 FF FF FF FF 05 58 C6 83   Length = 0 BitCount = 0 ID = 476
   5.188762 1  1da             Rx   d 8 B7 00 00 00 00 00 01 8A   Length = 0 BitCount = 0 ID = 474
   5.192196 1  55b             Rx   d 8 A4 40 AA 00 DF C0 11 10   Length = 0 BitCount = 0 ID = 1371
   5.192443 1  59e             Rx   d 8 00 00 0C 76 18 00 00 00   Length = 0 BitCount = 0 ID = 1438
   5.192682 1  5bc             Rx   d 8 3D 80 F0 64 B0 01 00 32   Length = 0 BitCount = 0 ID = 1468
   5.192965 1  59e             Rx   d 8 00 00 0C 76 18 00 00 00   Length = 0 BitCount = 0 ID = 1438
   5.193185 1  55b             Rx   d 8 A4 40 AA 00 DF C0 11 10   Length = 0 BitCount = 0 ID = 1371
   5.193423 1  5bc             Rx   d 8 3D 80 F0 64 B0 01 00 32   Length = 0 BitCount = 0 ID = 1468
   5.194188 1  1db             Rx   d 8 FF E0 FF C6 7F 00 03 8D   Length = 0 BitCount = 0 ID = 475
   5.194418 1  1dc             Rx   d 8 FF FF FF FF 08 C0 C3 13   Length = 0 BitCount = 0 ID = 476
   5.198760 1  1da             Rx   d 8 B8 00 00 00 00 00 02 AD   Length = 0 BitCount = 0 ID = 474
   5.204188 1  1db             Rx   d 8 FF E0 FF C6 7F 00 00 87   Length = 0 BitCount = 0 ID = 475
   5.204411 1  1dc             Rx   d 8 FF FF FF FF 0C C8 C8 6F   Length = 0 BitCount = 0 ID = 476
   5.207590 1  1db             Rx   d 8 FF E0 B7 2B 40 00 00 E1   Length = 0 BitCount = 0 ID = 475
   5.207824 1  1dc             Rx   d 8 6E 0A 05 D5 00 00 00 2B   Length = 0 BitCount = 0 ID = 476
   5.208057 1  1f2             Rx   d 8 30 A0 20 AC 00 3C 00 8F   Length = 0 BitCount = 0 ID = 498
   5.208290 1  50b             Rx   d 7 00 00 06 C0 00 00 00   Length = 0 BitCount = 0 ID = 1291
   5.208795 1  1da             Rx   d 8 B8 40 00 00 00 00 03 8A   Length = 0 BitCount = 0 ID = 474
   5.209437 1  390             Rx   d 8 06 00 00 60 00 88 21 C7   Length = 0 BitCount = 0 ID = 912
   5.209692 1  393             Rx   d 8 00 10 00 00 20 00 00 02   Length = 0 BitCount = 0 ID = 915
   5.214164 1  1db             Rx   d 8 00 00 FF E7 7F 00 01 1B   Length = 0 BitCount = 0 ID = 475
   5.214407 1  1dc             Rx   d 8 FF FF FF FF 01 1C E5 62   Length = 0 BitCount = 0 ID = 476
   5.217621 1  1db             Rx   d 8 00 00 B7 2B 40 00 01 24   Length = 0 BitCount = 0 ID = 475
   5.217817 1  1dc             Rx   d 8 6E 0A 05 D5 00 00 01 AE   Length = 0 BitCount = 0 ID = 476
   5.218057 1  1f2             Rx   d 8 30 A0 20 AC 00 3C 01 8F   Length = 0 BitCount = 0 ID = 498
   5.218259 1  50b             Rx   d 7 00 00 06 C0 00 00 00   Length = 0 BitCount = 0 ID = 1291
   5.218793 1  1da             Rx   d 8 B8 40 00 00 00 00 00 80   Length = 0 BitCount = 0 ID = 474
   5.224221 1  1db             Rx   d 8 00 00 FF E7 7F 00 02 11   Length = 0 BitCount = 0 ID = 475
   5.224436 1  1dc             Rx   d 8 FF FF F1 93 E5 58 C6 43   Length = 0 BitCount = 0 ID = 476
   5.227645 1  1db             Rx   d 8 00 00 B7 2B 40 00 02 2E   Length = 0 BitCount = 0 ID = 475
   5.227811 1  1dc             Rx   d 8 6E 0A 05 D5 00 00 02 A4   Length = 0 BitCount = 0 ID = 476
   5.228026 1  1f2             Rx   d 8 30 A0 20 AC 00 3C 02 8F   Length = 0 BitCount = 0 ID = 498
   5.228299 1  50b             Rx   d 7 00 00 06 C0 00 00 00   Length = 0 BitCount = 0 ID = 1291
   5.228829 1  1da             Rx   d 8 B8 00 00 00 00 00 01 A7   Length = 0 BitCount = 0 ID = 474
   5.234195 1  1db             Rx   d 8 00 00 FF E7 7F 00 03 94   Length = 0 BitCount = 0 ID = 475
   5.234419 1  1dc             Rx   d 8 FF FF F1 93 E8 C0 C3 D3   Length = 0 BitCount = 0 ID = 476
   5.237653 1  1db             Rx   d 8 00 00 B7 2B 40 00 03 AB   Length = 0 BitCount = 0 ID = 475
   5.237811 1  1dc             Rx   d 8 6E 0A 05 D5 00 00 03 21   Length = 0 BitCount = 0 ID = 476
   5.238054 1  1f2             Rx   d 8 30 A0 20 AC 00 3C 03 8F   Length = 0 BitCount = 0 ID = 498
   5.238301 1  50b             Rx   d 7 00 00 06 C0 00 00 00   Length = 0 BitCount = 0 ID = 1291
   5.238866 1  1da             Rx   d 8 B9 00 00 00 00 00 02 AA   Length = 0 BitCount = 0 ID = 474
   5.244198 1  1db             Rx   d 8 00 00 FF E7 7F 00 00 9E   Length = 0 BitCount = 0 ID = 475
   5.244428 1  1dc             Rx   d 8 FF FF F1 93 EC C8 C8 AF   Length = 0 BitCount = 0 ID = 476
   5.247623 1  1db             Rx   d 8 00 00 B7 2B 40 00 00 A1   Length = 0 BitCount = 0 ID = 475
   5.247823 1  1dc             Rx   d 8 6E 0A 05 D5 00 00 00 2B   Length = 0 BitCount = 0 ID = 476
   5.248010 1  1f2             Rx   d 8 30 A0 20 AC 00 3C 00 8F   Length = 0 BitCount = 0 ID = 498
   5.248234 1  50b             Rx   d 7 00 00 06 C0 00 00 00   Length = 0 BitCount = 0 ID = 1291
   5.248846 1  1da             Rx   d 8 B9 40 00 00 00 00 03 8D   Length = 0 BitCount = 0 ID = 474
   5.254203 1  1db             Rx   d 8 00 00 FF E7 7F 00 01 1B   Length = 0 BitCount = 0 ID = 475
   5.254392 1  1dc             Rx   d 8 FF FF F1 93 E1 1C E5 A2   Length = 0 BitCount = 0 ID = 476
   5.257629 1  1db             Rx   d 8 00 00 B7 2B 40 00 01 24   Length = 0 BitCount = 0 ID = 475
   5.257831 1  1dc             Rx   d 8 6E 0A 05 D5 00 00 01 AE   Length = 0 BitCount = 0 ID = 476
   5.258034 1  1f2             Rx   d 8 30 A0 20 AC 00 3C 01 8F   Length = 0 BitCount = 0 ID = 498
   5.258268 1  50b             Rx   d 7 00 00 06 C0 00 00 00   Length = 0 BitCount = 0 ID = 1291
   5.258837 1  1da             Rx   d 8 B9 40 00 00 00 00 00 87   Length = 0 BitCount = 0 ID = 474
   5.264203 1  1db             Rx   d 8 00 00 FF E7 7F 00 02 11   Length = 0 BitCount = 0 ID = 475
   5.264402 1  1dc             Rx   d 8 FF FF F1 93 E5 58 C6 43   Length = 0 BitCount = 0 ID = 476
   5.267627 1  1db             Rx   d 8 00 00 B7 2B 40 00 02 2E   Length = 0 BitCount = 0 ID = 475
   5.267823 1  1dc             Rx   d 8 6E 0A 05 D5 00 00 02 A4   Length = 0 BitCount = 0 ID = 476
   5.268034 1  1f2             Rx   d 8 30 A0 20 AC 00 3C 02 8F   Length = 0 BitCount = 0 ID = 498
   5.268261 1  50b             Rx   d 7 00 00 06 C0 00 00 00   Length = 0 BitCount = 0 ID = 1291
   5.268774 1  1da             Rx   d 8 B9 00 00 00 00 00 01 A0   Length = 0 BitCount = 0 ID = 474
   5.269038 1  55a             Rx   d 8 00 3C 3B 00 5F 00 7A E8   Length = 0 BitCount = 0 ID = 1370
   5.274414 1  1db             Rx   d 8 00 20 FF E7 7F 00 03 C5   Length = 0 BitCount = 0 ID = 475
   5.274588 1  1dc             Rx   d 8 FF FF F1 93 E8 C0 C3 D3   Length = 0 BitCount = 0 ID = 476
   5.274882 1  55b             Rx   d 8 A5 00 AA 00 FF C0 11 14   Length = 0 BitCount = 0 ID = 1371
   5.275112 1  5bc             Rx   d 8 5D C0 D7 64 A5 13 FF FF   Length = 0 BitCount = 0 ID = 1468
   5.277618 1  1db             Rx   d 8 00 20 B7 2B 40 00 03 FA   Length = 0 BitCount = 0 ID = 475
   5.277829 1  1dc             Rx   d 8 6E 0A 05 D5 00 00 03 21   Length = 0 BitCount = 0 ID = 476
   5.278076 1  1f2             Rx   d 8 30 A0 20 AC 00 3C 03 8F   Length = 0 BitCount = 0 ID = 498
   5.278258 1  50b             Rx   d 7 00 00 06 C0 00 00 00   Length = 0 BitCount = 0 ID = 1291
   5.278773 1  1da             Rx   d 8 B9 00 00 00 00 00 02 AA   Length = 0 BitCount = 0 ID = 474
   5.284200 1  1db             Rx   d 8 00 20 FF E7 7F 00 00 CF   Length = 0 BitCount = 0 ID = 475
   5.284389 1  1dc             Rx   d 8 FF FF F1 93 EC C8 C8 AF   Length = 0 BitCount = 0 ID = 476
   5.287559 1  1db             Rx   d 8 00 20 B7 2B 40 00 00 F0   Length = 0 BitCount = 0 ID = 475
   5.287785 1  1dc             Rx   d 8 6E 0A 05 D5 00 00 00 2B   Length = 0 BitCount = 0 ID = 476
   5.288031 1  1f2             Rx   d 8 30 A0 20 AC 00 3C 00 8F   Length = 0 BitCount = 0 ID = 498
   5.288248 1  50b             Rx   d 7 00 00 06 C0 00 00 00   Length = 0 BitCount = 0 ID = 1291
   5.288758 1  1da             Rx   d 8 B9 40 00 00 00 00 03 8D   Length = 0 BitCount = 0 ID = 474
   5.292193 1  55b             Rx   d 8 A4 40 AA 00 DF C0 12 1A   Length = 0 BitCount = 0 ID = 1371
   5.292446 1  59e             Rx   d 8 00 00 0C 76 18 00 00 00   Length = 0 BitCount = 0 ID = 1438
   5.292651 1  5bc             Rx   d 8 3D 80 F0 64 B0 01 00 32   Length = 0 BitCount = 0 ID = 1468
   5.292949 1  59e             Rx   d 8 00 00 0C 76 18 00 00 00   Length = 0 BitCount = 0 ID = 1438
   5.293155 1  55b             Rx   d 8 A4 40 AA 00 DF C0 12 1A   Length = 0 BitCount = 0 ID = 1371
   5.293403 1  5bc             Rx   d 8 3D 80 F0 64 B0 01 00 32   Length = 0 BitCount = 0 ID = 1468
   5.294158 1  1db             Rx   d 8 00 20 FF E7 7F 00 01 4A   Length = 0 BitCount = 0 ID = 475
   5.294420 1  1dc             Rx   d 8 FF FF F1 93 E1 1C E5 A2   Length = 0 BitCount = 0 ID = 476
   5.297594 1  1db             Rx   d 8 00 20 B7 2B 40 00 01 75   Length = 0 BitCount = 0 ID = 475
   5.297832 1  1dc             Rx   d 8 6E 0A 05 D5 00 00 01 AE   Length = 0 BitCount = 0 ID = 476
   5.298014 1  1f2             Rx   d 8 30 A0 20 AC 00 3C 01 8F   Length = 0 BitCount = 0 ID = 498
   5.298212 1  50b             Rx   d 7 00 00 06 C0 00 00 00   Length = 0 BitCount = 0 ID = 1291
   5.298753 1  1da             Rx   d 8 B9 40 00 00 00 00 00 87   Length = 0 BitCount = 0 ID = 474
   5.304170 1  1db             Rx   d 8 00 20 FF E7 7F 00 02 40   Length = 0 BitCount = 0 ID = 475
   5.304405 1  1dc             Rx   d 8 FF FF F1 93 E5 58 C6 43   Length = 0 BitCount = 0 ID = 476
   5.307569 1  1db             Rx   d 8 00 20 B9 2B 40 00 02 EB   Length = 0 BitCount = 0 ID = 475
   5.307820 1  1dc             Rx   d 8 6E 0A 05 D5 00 00 02 A4   Length = 0 BitCount = 0 ID = 476
   5.308041 1  1f2             Rx   d 8 30 A0 20 AC 00 3C 02 8F   Length = 0 BitCount = 0 ID = 498
   5.308268 1  50b             Rx   d 7 00 00 06 C0 00 00 00   Length = 0 BitCount = 0 ID = 1291
   5.308822 1  1da             Rx   d 8 B9 00 00 00 00 00 01 A0   Length = 0 BitCount = 0 ID = 474
   5.309597 1  390             Rx   d 8 06 00 00 62 00 88 00 D7   Length = 0 BitCount = 0 ID = 912
   5.309825 1  393             Rx   d 8 00 51 00 00 20 00 00 18   Length = 0 BitCount = 0 ID = 915
   5.314168 1  1db             Rx   d 8 00 20 FF E7 7F 00 03 C5   Length = 0 BitCount = 0 ID = 475
   5.314406 1  1dc             Rx   d 8 FF FF F1 93 E8 C0 C3 D3   Length = 0 BitCount = 0 ID = 476
   5.317597 1  1db             Rx   d 8 00 20 B9 2B 40 00 03 6E   Length = 0 BitCount = 0 ID = 475
   5.317844 1  1dc             Rx   d 8 6E 0A 05 D5 00 00 03 21   Length = 0 BitCount = 0 ID = 476
   5.318134 1  1f2             Rx   d 8 30 A0 20 AC 00 3C 03 8F   Length = 0 BitCount = 0 ID = 498
   5.318296 1  50b             Rx   d 7 00 00 06 C0 00 00 00   Length = 0 BitCount = 0 ID = 1291
   5.318798 1  1da             Rx   d 8 B9 00 00 00 00 00 02 AA   Length = 0 BitCount = 0 ID = 474
   5.324168 1  1db             Rx   d 8 00 20 FF E7 7F 00 00 CF   Length = 0 BitCount = 0 ID = 475
   5.324396 1  1dc             Rx   d 8 FF FF F1 93 EC C8 C8 AF   Length = 0 BitCount = 0 ID = 476
   5.327573 1  1db             Rx   d 8 00 20 B9 2B 40 00 00 64   Length = 0 BitCount = 0 ID = 475
   5.327816 1  1dc             Rx   d 8 6E 0A 05 D5 00 00 00 2B   Length = 0 BitCount = 0 ID = 476
   5.328066 1  1f2             Rx   d 8 30 A0 20 AC 00 3C 00 8F   Length = 0 BitCount = 0 ID = 498
   5.328277 1  50b             Rx   d 7 00 00 06 C0 00 00 00   Length = 0 BitCount = 0 ID = 1291
   5.328800 1  1da             Rx   d 8 B9 40 00 00 00 00 83 04   Length = 0 BitCount = 0 ID = 474
   5.334205 1  1db             Rx   d 8 00 20 FF E7 7F 00 01 4A   Length = 0 BitCount = 0 ID = 475
   5.334412 1  1dc             Rx   d 8 FF FF F1 93 E1 1C E5 A2   Length = 0 BitCount = 0 ID = 476
   5.337635 1  1db             Rx   d 8 00 20 B9 2B 40 00 01 E1   Length = 0 BitCount = 0 ID = 475
   5.337828 1  1dc             Rx   d 8 6E 0A 05 D5 00 00 01 AE   Length = 0 BitCount = 0 ID = 476
   5.338043 1  1f2             Rx   d 8 30 A0 20 AC 00 3C 01 8F   Length = 0 BitCount = 0 ID = 498
   5.338265 1  50b             Rx   d 7 00 00 06 C0 00 00 00   Length = 0 BitCount = 0 ID = 1291
   5.338806 1  1da             Rx   d 8 B9 40 00 00 00 00 80 0E   Length = 0 BitCount = 0 ID = 474
   5.344205 1  1db             Rx   d 8 00 20 FF EF 7F 00 02 F0   Length = 0 BitCount = 0 ID = 475
   5.344393 1  1dc             Rx   d 8 FF FF F1 93 E5 58 C6 43   Length = 0 BitCount = 0 ID = 476
   5.347631 1  1db             Rx   d 8 00 20 B9 2B 40 00 02 EB   Length = 0 BitCount = 0 ID = 475
   5.347793 1  1dc             Rx   d 8 6E 0A 05 D5 00 00 02 A4   Length = 0 BitCount = 0 ID = 476
   5.348027 1  1f2             Rx   d 8 30 A0 20 AC 00 3C 02 8F   Length = 0 BitCount = 0 ID = 498
   5.348215 1  50b             Rx   d 7 00 00 06 C0 00 00 00   Length = 0 BitCount = 0 ID = 1291
   5.348718 1  1da             Rx   d 8 B9 00 00 00 00 00 81 29   Length = 0 BitCount = 0 ID = 474
   5.354215 1  1db             Rx   d 8 00 20 FF EF 7F 00 03 75   Length = 0 BitCount = 0 ID = 475
   5.354403 1  1dc             Rx   d 8 FF FF F1 93 E8 C0 C3 D3   Length = 0 BitCount = 0 ID = 476
   5.357611 1  1db             Rx   d 8 00 20 B9 2B 40 00 03 6E   Length = 0 BitCount = 0 ID = 475
   5.357806 1  1dc             Rx   d 8 6E 0A 05 D5 00 00 03 21   Length = 0 BitCount = 0 ID = 476
   5.358105 1  1f2             Rx   d 8 30 A0 20 AC 00 3C 03 8F   Length = 0 BitCount = 0 ID = 498
   5.358311 1  50b             Rx   d 7 00 00 06 C0 00 00 00   Length = 0 BitCount = 0 ID = 1291
   5.358832 1  1da             Rx   d 8 B9 00 00 00 00 00 82 23   Length = 0 BitCount = 0 ID = 474
   5.364212 1  1db             Rx   d 8 00 20 FF EF 7F 00 00 7F   Length = 0 BitCount = 0 ID = 475
   5.364427 1  1dc             Rx   d 8 FF FF F1 93 EC C8 C8 AF   Length = 0 BitCount = 0 ID = 476
   5.367628 1  1db             Rx   d 8 00 20 B9 2B 40 00 00 64   Length = 0 BitCount = 0 ID = 475
   5.367817 1  1dc             Rx   d 8 6E 0A 05 D5 00 00 00 2B   Length = 0 BitCount = 0 ID = 476
   5.368075 1  1f2             Rx   d 8 30 A0 20 AC 00 3C 00 8F   Length = 0 BitCount = 0 ID = 498
   5.368287 1  50b             Rx   d 7 00 00 06 C0 00 00 00   Length = 0 BitCount = 0 ID = 1291
   5.368853 1  1da             Rx   d 8 B9 40 00 00 00 00 83 04   Length = 0 BitCount = 0 ID = 474
   5.369058 1  55a             Rx   d 8 00 3C 3B 00 5F 00 82 F0   Length = 0 BitCount = 0 ID = 1370
   5.374428 1  1db             Rx   d 8 00 20 FF EF 7F 00 01 FA   Length = 0 BitCount = 0 ID = 475
   5.374620 1  1dc             Rx   d 8 FF FF F1 93 E1 1C E5 A2   Length = 0 BitCount = 0 ID = 476
   5.374914 1  55b             Rx   d 8 A5 00 AA 00 FF C0 12 1E   Length = 0 BitCount = 0 ID = 1371
   5.375132 1  5bc             Rx   d 8 FF C0 D7 64 A5 00 1F FF   Length = 0 BitCount = 0 ID = 1468
   5.377628 1  1db             Rx   d 8 00 20 B9 2B 40 00 01 E1   Length = 0 BitCount = 0 ID = 475
   5.377844 1  1dc             Rx   d 8 6E 0A 05 D5 00 00 01 AE   Length = 0 BitCount = 0 ID = 476
   5.378036 1  1f2             Rx   d 8 30 A0 20 AC 00 3C 01 8F   Length = 0 BitCount = 0 ID = 498
   5.378252 1  50b             Rx   d 7 00 00 06 C0 00 00 00   Length = 0 BitCount = 0 ID = 1291
   5.378769 1  1da             Rx   d 8 B9 40 00 00 00 00 80 0E   Length = 0 BitCount = 0 ID = 474
   5.384168 1  1db             Rx   d 8 00 20 FF EF 7F 00 02 F0   Length = 0 BitCount = 0 ID = 475
   5.384407 1  1dc             Rx   d 8 FF FF F1 93 E5 58 C6 43   Length = 0 BitCount = 0 ID = 476
   5.387571 1  1db             Rx   d 8 00 20 B9 2B 40 00 02 EB   Length = 0 BitCount = 0 ID = 475
   5.387823 1  1dc             Rx   d 8 6E 0A 05 D5 00 00 02 A4   Length = 0 BitCount = 0 ID = 476
   5.388046 1  1f2             Rx   d 8 30 A0 20 AC 00 3C 02 8F   Length = 0 BitCount = 0 ID = 498
   5.388283 1  50b             Rx   d 7 00 00 06 C0 00 00 00   Length = 0 BitCount = 0 ID = 1291
   5.388801 1  1da             Rx   d 8 B9 00 00 00 00 00 81 29   Length = 0 BitCount = 0 ID = 474
   5.392194 1  55b             Rx   d 8 A4 40 AA 00 DF C0 13 9F   Length = 0 BitCount = 0 ID = 1371
   5.392448 1  59e             Rx   d 8 00 00 0C 76 18 00 00 00   Length = 0 BitCount = 0 ID = 1438
   5.392686 1  5bc             Rx   d 8 3D 80 F0 64 B0 01 00 32   Length = 0 BitCount = 0 ID = 1468
   5.392971 1  59e             Rx   d 8 00 00 0C 76 18 00 00 00   Length = 0 BitCount = 0 ID = 1438
   5.393150 1  55b             Rx   d 8 A4 40 AA 00 DF C0 13 9F   Length = 0 BitCount = 0 ID = 1371
   5.393387 1  5bc             Rx   d 8 3D 80 F0 64 B0 01 00 32   Length = 0 BitCount = 0 ID = 1468
   5.394170 1  1db             Rx   d 8 00 20 FF EF 7F 00 03 75   Length = 0 BitCount = 0 ID = 475
   5.394435 1  1dc             Rx   d 8 FF FF F1 93 E8 C0 C3 D3   Length = 0 BitCount = 0 ID = 476
   5.397606 1  1db             Rx   d 8 00 20 B9 2B 40 00 03 6E   Length = 0 BitCount = 0 ID = 475
   5.397823 1  1dc             Rx   d 8 6E 0A 05 D5 00 00 03 21   Length = 0 BitCount = 0 ID = 476
   5.398017 1  1f2             Rx   d 8 30 A0 20 AC 00 3C 03 8F   Length = 0 BitCount = 0 ID = 498
   5.398245 1  50b             Rx   d 7 00 00 06 C0 00 00 00   Length = 0 BitCount = 0 ID = 1291
   5.398784 1  1da             Rx   d 8 B9 00 00 00 00 00 82 23   Length = 0 BitCount = 0 ID = 474
   5.404190 1  1db             Rx   d 8 00 20 FF EF 7F 00 00 7F   Length = 0 BitCount = 0 ID = 475
   5.404402 1  1dc             Rx   d 8 FF FF F1 93 EC C8 C8 AF   Length = 0 BitCount = 0 ID = 476
   5.407571 1  1db             Rx   d 8 00 20 B9 2B 40 00 00 64   Length = 0 BitCount = 0 ID = 475
   5.407822 1  1dc             Rx   d 8 6E 0A 05 D5 00 00 00 2B   Length = 0 BitCount = 0 ID = 476
   5.408070 1  1f2             Rx   d 8 30 A0 20 AC 00 3C 00 8F   Length = 0 BitCount = 0 ID = 498
   5.408272 1  50b             Rx   d 7 00 00 06 C0 00 00 00   Length = 0 BitCount = 0 ID = 1291
   5.408775 1  1da             Rx   d 8 B9 40 00 00 00 00 83 04   Length = 0 BitCount = 0 ID = 474
   5.409706 1  390             Rx   d 8 06 00 00 62 00 88 00 E8   Length = 0 BitCount = 0 ID = 912
   5.409971 1  393             Rx   d 8 00 51 00 00 20 00 00 29   Length = 0 BitCount = 0 ID = 915
   5.414170 1  1db             Rx   d 8 00 20 FF EF 7F 00 01 FA   Length = 0 BitCount = 0 ID = 475
   5.414389 1  1dc             Rx   d 8 FF FF F1 93 E1 1C E5 A2   Length = 0 BitCount = 0 ID = 476
   5.417577 1  1db             Rx   d 8 00 20 B9 2B 40 00 01 E1   Length = 0 BitCount = 0 ID = 475
   5.417819 1  1dc             Rx   d 8 6E 0A 05 D5 00 00 01 AE   Length = 0 BitCount = 0 ID = 476
   5.418044 1  1f2             Rx   d 8 30 A0 20 AC 00 3C 01 8F   Length = 0 BitCount = 0 ID = 498
   5.418246 1  50b             Rx   d 7 00 00 06 C0 00 00 00   Length = 0 BitCount = 0 ID = 1291
   5.418769 1  1da             Rx   d 8 B9 40 00 00 00 00 80 0E   Length = 0 BitCount = 0 ID = 474
   5.424218 1  1db             Rx   d 8 00 20 FF EF 7F 00 02 F0   Length = 0 BitCount = 0 ID = 475
   5.424434 1  1dc             Rx   d 8 FF FF F1 93 E5 58 C6 43   Length = 0 BitCount = 0 ID = 476
   5.427655 1  1db             Rx   d 8 00 20 B9 2B 40 00 02 EB   Length = 0 BitCount = 0 ID = 475
   5.427859 1  1dc             Rx   d 8 6E 0A 05 D5 00 00 02 A4   Length = 0 BitCount = 0 ID = 476
   5.428072 1  1f2             Rx   d 8 30 A0 20 AC 00 3C 02 8F   Length = 0 BitCount = 0 ID = 498
   5.428296 1  50b             Rx   d 7 00 00 06 C0 00 00 00   Length = 0 BitCount = 0 ID = 1291
   5.428834 1  1da             Rx   d 8 B9 00 00 00 00 00 81 29   Length = 0 BitCount = 0 ID = 474
   5.434244 1  1db             Rx   d 8 00 20 FF EF 7F 00 03 75   Length = 0 BitCount = 0 ID = 475
   5.434443 1  1dc             Rx   d 8 FF FF F1 93 E8 C0 C3 D3   Length = 0 BitCount = 0 ID = 476
   5.437672 1  1db             Rx   d 8 00 20 B9 2B 40 00 03 6E   Length = 0 BitCount = 0 ID = 475
   5.437869 1  1dc             Rx   d 8 6E 0A 05 D5 00 00 03 21   Length = 0 BitCount = 0 ID = 476
   5.438107 1  1f2             Rx   d 8 30 A0 20 AC 00 3C 03 8F   Length = 0 BitCount = 0 ID = 498
   5.438305 1  50b             Rx   d 7 00 00 06 C0 00 00 00   Length = 0 BitCount = 0 ID = 1291
   5.438827 1  1da             Rx   d 8 B9 00 00 00 00 00 82 23   Length = 0 BitCount = 0 ID = 474
   5.444268 1  1db             Rx   d 8 00 20 FF EF 7F 00 00 7F   Length = 0 BitCount = 0 ID = 475
   5.444436 1  1dc             Rx   d 8 FF FF F1 93 EC C8 C8 AF   Length = 0 BitCount = 0 ID = 476
   5.447615 1  1db             Rx   d 8 00 20 B9 2B 40 00 00 64   Length = 0 BitCount = 0 ID = 475
   5.447862 1  1dc             Rx   d 8 6E 0A 05 D5 00 00 00 2B   Length = 0 BitCount = 0 ID = 476
   5.448098 1  1f2             Rx   d 8 30 A0 20 AC 00 3C 00 8F   Length = 0 BitCount = 0 ID = 498
   5.448299 1  50b             Rx   d 7 00 00 06 C0 00 00 00   Length = 0 BitCount = 0 ID = 1291
   5.448745 1  1da             Rx   d 8 B9 40 00 00 00 00 83 04   Length = 0 BitCount = 0 ID = 474
   5.454269 1  1db             Rx   d 8 00 20 FF EF 7F 00 01 FA   Length = 0 BitCount = 0 ID = 475
   5.454437 1  1dc             Rx   d 8 FF FF F1 93 E1 1C E5 A2   Length = 0 BitCount = 0 ID = 476
   5.457673 1  1db             Rx   d 8 00 20 B9 2B 40 00 01 E1   Length = 0 BitCount = 0 ID = 475
   5.457860 1  1dc             Rx   d 8 6E 0A 05 D5 00 00 01 AE   Length = 0 BitCount = 0 ID = 476
   5.458108 1  1f2             Rx   d 8 30 6A 20 AC 00 3C 01 8F   Length = 0 BitCount = 0 ID = 498
   5.458334 1  50b             Rx   d 7 00 00 06 C0 00 00 00   Length = 0 BitCount = 0 ID = 1291
   5.458779 1  1da             Rx   d 8 B9 40 00 00 00 00 80 0E   Length = 0 BitCount = 0 ID = 474
   5.464252 1  1db             Rx   d 8 00 20 FF EF 7F 00 02 F0   Length = 0 BitCount = 0 ID = 475
   5.464422 1  1dc             Rx   d 8 FF FF F1 93 E5 58 C6 43   Length = 0 BitCount = 0 ID = 476
   5.467676 1  1db             Rx   d 8 00 20 B9 2B 40 00 02 EB   Length = 0 BitCount = 0 ID = 475
   5.467846 1  1dc             Rx   d 8 6E 0A 05 D5 00 00 02 A4   Length = 0 BitCount = 0 ID = 476
   5.468080 1  1f2             Rx   d 8 30 72 20 AC 00 3C 02 8F   Length = 0 BitCount = 0 ID = 498
   5.468296 1  50b             Rx   d 7 00 00 06 C0 00 00 00   Length = 0 BitCount = 0 ID = 1291
   5.468894 1  1da             Rx   d 8 B9 00 00 00 00 00 81 29   Length = 0 BitCount = 0 ID = 474
   5.469058 1  55a             Rx   d 8 00 3C 3B 00 5F 00 82 F0   Length = 0 BitCount = 0 ID = 1370
   5.474449 1  1db             Rx   d 8 00 20 FF EF 7F 00 03 75   Length = 0 BitCount = 0 ID = 475
   5.474661 1  1dc             Rx   d 8 FF FF F1 93 E8 C0 C3 D3   Length = 0 BitCount = 0 ID = 476
   5.474884 1  55b             Rx   d 8 A5 00 AA 00 FF C0 13 9B   Length = 0 BitCount = 0 ID = 1371
   5.475124 1  5bc             Rx   d 8 5D C0 D7 64 A5 10 BF FF   Length = 0 BitCount = 0 ID = 1468
   5.477666 1  1db             Rx   d 8 00 20 B9 2B 40 00 03 6E   Length = 0 BitCount = 0 ID = 475
   5.477858 1  1dc             Rx   d 8 6E 0A 05 D5 00 00 03 21   Length = 0 BitCount = 0 ID = 476
   5.478102 1  1f2             Rx   d 8 30 79 20 AC 00 3C 03 8F   Length = 0 BitCount = 0 ID = 498
   5.478304 1  50b             Rx   d 7 00 00 06 C0 00 00 00   Length = 0 BitCount = 0 ID = 1291
   5.478781 1  1da             Rx   d 8 B9 00 00 00 00 00 82 23   Length = 0 BitCount = 0 ID = 474
   5.484199 1  1db             Rx   d 8 00 20 FF EF 7F 00 00 7F   Length = 0 BitCount = 0 ID = 475
   5.484426 1  1dc             Rx   d 8 FF FF F1 93 EC C8 C8 AF   Length = 0 BitCount = 0 ID = 476
   5.487528 1  1db             Rx   d 8 00 20 B9 2B 40 00 00 64   Length = 0 BitCount = 0 ID = 475
   5.487782 1  1dc             Rx   d 8 6E 0A 05 D5 00 00 00 2B   Length = 0 BitCount = 0 ID = 476
   5.488069 1  1f2             Rx   d 8 30 84 20 AC 00 3C 00 8F   Length = 0 BitCount = 0 ID = 498
   5.488228 1  50b             Rx   d 7 00 00 06 C0 00 00 00   Length = 0 BitCount = 0 ID = 1291
   5.488752 1  1da             Rx   d 8 B9 40 00 00 00 00 83 04   Length = 0 BitCount = 0 ID = 474
   5.492198 1  55b             Rx   d 8 A4 40 AA 00 DF C0 10 95   Length = 0 BitCount = 0 ID = 1371
   5.492449 1  59e             Rx   d 8 00 00 0C 76 18 00 00 00   Length = 0 BitCount = 0 ID = 1438
   5.492676 1  5bc             Rx   d 8 3D 80 F0 64 B0 01 00 32   Length = 0 BitCount = 0 ID = 1468
   5.492971 1  59e             Rx   d 8 00 00 0C 76 18 00 00 00   Length = 0 BitCount = 0 ID = 1438
   5.493128 1  55b             Rx   d 8 A4 40 AA 00 DF C0 10 95   Length = 0 BitCount = 0 ID = 1371
   5.493383 1  5bc             Rx   d 8 3D 80 F0 64 B0 01 00 32   Length = 0 BitCount = 0 ID = 1468
   5.494127 1  1db             Rx   d 8 00 20 FF EF 7F 00 01 FA   Length = 0 BitCount = 0 ID = 475
   5.494378 1  1dc             Rx   d 8 FF FF F1 93 E1 1C E5 A2   Length = 0 BitCount = 0 ID = 476
   5.497572 1  1db             Rx   d 8 00 20 B9 2B 40 00 01 E1   Length = 0 BitCount = 0 ID = 475
   5.497823 1  1dc             Rx   d 8 6E 0A 05 D5 00 00 01 AE   Length = 0 BitCount = 0 ID = 476
   5.498043 1  1f2             Rx   d 8 30 8C 20 AC 00 3C 01 8F   Length = 0 BitCount = 0 ID = 498
   5.498270 1  50b             Rx   d 7 00 00 06 C0 00 00 00   Length = 0 BitCount = 0 ID = 1291
   5.498778 1  1da             Rx   d 8 B9 40 00 00 00 00 80 0E   Length = 0 BitCount = 0 ID = 474
   5.504150 1  1db             Rx   d 8 00 20 FF EF 7F 00 02 F0   Length = 0 BitCount = 0 ID = 475
   5.504371 1  1dc             Rx   d 8 FF FF F1 93 E5 58 C6 43   Length = 0 BitCount = 0 ID = 476
   5.507568 1  1db             Rx   d 8 00 20 B9 2B 40 00 02 EB   Length = 0 BitCount = 0 ID = 475
   5.507827 1  1dc             Rx   d 8 6E 0A 05 D5 00 00 02 A4   Length = 0 BitCount = 0 ID = 476
   5.508050 1  1f2             Rx   d 8 30 93 20 AC 00 3C 02 8F   Length = 0 BitCount = 0 ID = 498
   5.508291 1  50b             Rx   d 7 00 00 06 C0 00 00 00   Length = 0 BitCount = 0 ID = 1291
   5.508779 1  1da             Rx   d 8 B9 00 00 00 00 00 81 29   Length = 0 BitCount = 0 ID = 474
   5.509818 1  390             Rx   d 8 06 00 00 A2 00 88 00 FD   Length = 0 BitCount = 0 ID = 912
   5.510053 1  393             Rx   d 8 00 51 00 00 20 00 00 3A   Length = 0 BitCount = 0 ID = 915
   5.514151 1  1db             Rx   d 8 00 20 FF EF 7F 00 03 75   Length = 0 BitCount = 0 ID = 475
   5.514361 1  1dc             Rx   d 8 FF FF F1 93 E8 C0 C3 D3   Length = 0 BitCount = 0 ID = 476
   5.517609 1  1db             Rx   d 8 00 20 B9 2B 40 00 03 6E   Length = 0 BitCount = 0 ID = 475
   5.517834 1  1dc             Rx   d 8 6E 0A 05 D5 00 00 03 21   Length = 0 BitCount = 0 ID = 476
   5.518070 1  1f2             Rx   d 8 30 9B 20 AC 00 3C 03 8F   Length = 0 BitCount = 0 ID = 498
   5.518297 1  50b             Rx   d 7 00 00 06 C0 00 00 00   Length = 0 BitCount = 0 ID = 1291
   5.518683 1  1da             Rx   d 8 B9 00 00 00 00 00 82 23   Length = 0 BitCount = 0 ID = 474
   5.524179 1  1db             Rx   d 8 00 20 FF EF 7F 00 00 7F   Length = 0 BitCount = 0 ID = 475
   5.524411 1  1dc             Rx   d 8 FF FF F1 93 EC C8 C8 AF   Length = 0 BitCount = 0 ID = 476
   5.527609 1  1db             Rx   d 8 00 20 B9 2B 40 00 00 64   Length = 0 BitCount = 0 ID = 475
   5.527829 1  1dc             Rx   d 8 6E 0A 05 D5 00 00 00 2B   Length = 0 BitCount = 0 ID = 476
   5.528080 1  1f2             Rx   d 8 30 A0 20 AC 00 3C 00 8F   Length = 0 BitCount = 0 ID = 498
   5.528278 1  50b             Rx   d 7 00 00 06 C0 00 00 00   Length = 0 BitCount = 0 ID = 1291
   5.528780 1  1da             Rx   d 8 B9 40 00 00 00 00 83 04   Length = 0 BitCount = 0 ID = 474
   5.534131 1  1db             Rx   d 8 00 20 FF EF 7F 00 01 FA   Length = 0 BitCount = 0 ID = 475
   5.534361 1  1dc             Rx   d 8 FF FF F1 93 E1 1C E5 A2   Length = 0 BitCount = 0 ID = 476
   5.537576 1  1db             Rx   d 8 00 20 B9 2B 40 00 01 E1   Length = 0 BitCount = 0 ID = 475
   5.537838 1  1dc             Rx   d 8 6E 0A 05 D5 00 00 01 AE   Length = 0 BitCount = 0 ID = 476
   5.538068 1  1f2             Rx   d 8 30 A0 20 AC 00 3C 01 8F   Length = 0 BitCount = 0 ID = 498
   5.538298 1  50b             Rx   d 7 00 00 06 C0 00 00 00   Length = 0 BitCount = 0 ID = 1291
   5.538746 1  1da             Rx   d 8 B9 40 00 00 00 00 80 0E   Length = 0 BitCount = 0 ID = 474
   5.544192 1  1db             Rx   d 8 00 20 FF EF 7F 00 02 F0   Length = 0 BitCount = 0 ID = 475
   5.544405 1  1dc             Rx   d 8 FF FF F1 93 E5 58 C6 43   Length = 0 BitCount = 0 ID = 476
   5.547628 1  1db             Rx   d 8 00 20 B9 2B 40 00 02 EB   Length = 0 BitCount = 0 ID = 475
   5.547831 1  1dc             Rx   d 8 6E 0A 05 D5 00 00 02 A4   Length = 0 BitCount = 0 ID = 476
   5.548003 1  1f2             Rx   d 8 30 A0 20 AC 00 3C 02 8F   Length = 0 BitCount = 0 ID = 498
   5.548226 1  50b             Rx   d 7 00 00 06 C0 00 00 00   Length = 0 BitCount = 0 ID = 1291
   5.548711 1  1da             Rx   d 8 B9 00 00 00 00 00 81 29   Length = 0 BitCount = 0 ID = 474
   5.554190 1  1db             Rx   d 8 00 20 FF EF 7F 00 03 75   Length = 0 BitCount = 0 ID = 475
   5.554380 1  1dc             Rx   d 8 FF FF F1 93 E8 C0 C3 D3   Length = 0 BitCount = 0 ID = 476
   5.557641 1  1db             Rx   d 8 00 20 B9 2B 40 00 03 6E   Length = 0 BitCount = 0 ID = 475
   5.557800 1  1dc             Rx   d 8 6E 0A 05 D5 00 00 03 21   Length = 0 BitCount = 0 ID = 476
   5.558075 1  1f2             Rx   d 8 30 A0 20 AC 00 3C 03 8F   Length = 0 BitCount = 0 ID = 498
   5.558293 1  50b             Rx   d 7 00 00 06 C0 00 00 00   Length = 0 BitCount = 0 ID = 1291
   5.558789 1  1da             Rx   d 8 B9 00 00 00 00 00 82 23   Length = 0 BitCount = 0 ID = 474
   5.564214 1  1db             Rx   d 8 00 20 FF EF 7F 00 00 7F   Length = 0 BitCount = 0 ID = 475
   5.564378 1  1dc             Rx   d 8 FF FF F1 93 EC C8 C8 AF   Length = 0 BitCount = 0 ID = 476
   5.567626 1  1db             Rx   d 8 00 20 B9 2B 40 00 00 64   Length = 0 BitCount = 0 ID = 475
   5.567836 1  1dc             Rx   d 8 6E 0A 05 D5 00 00 00 2B   Length = 0 BitCount = 0 ID = 476
   5.568088 1  1f2             Rx   d 8 30 A0 20 AC 00 3C 00 8F   Length = 0 BitCount = 0 ID = 498
   5.568288 1  50b             Rx   d 7 00 00 06 C0 00 00 00   Length = 0 BitCount = 0 ID = 1291
   5.568772 1  1da             Rx   d 8 B9 40 00 00 00 00 83 04   Length = 0 BitCount = 0 ID = 474
   5.568969 1  55a             Rx   d 8 00 3C 3B 00 5F 00 82 F0   Length = 0 BitCount = 0 ID = 1370
   5.574460 1  1db             Rx   d 8 00 20 FF EF 7F 00 01 FA   Length = 0 BitCount = 0 ID = 475
   5.574601 1  1dc             Rx   d 8 FF FF F1 93 E1 1C E5 A2   Length = 0 BitCount = 0 ID = 476
   5.574860 1  55b             Rx   d 8 A5 00 AA 00 FF C0 10 91   Length = 0 BitCount = 0 ID = 1371
   5.575070 1  5bc             Rx   d 8 FF C0 D7 64 A5 01 1F FF   Length = 0 BitCount = 0 ID = 1468
   5.577621 1  1db             Rx   d 8 00 20 B9 2B 40 00 01 E1   Length = 0 BitCount = 0 ID = 475
   5.577837 1  1dc             Rx   d 8 6E 0A 05 D5 00 00 01 AE   Length = 0 BitCount = 0 ID = 476
   5.578027 1  1f2             Rx   d 8 30 A0 20 AC 00 3C 01 8F   Length = 0 BitCount = 0 ID = 498
   5.578272 1  50b             Rx   d 7 00 00 06 C0 00 00 00   Length = 0 BitCount = 0 ID = 1291
   5.578727 1  1da             Rx   d 8 B9 40 00 00 00 00 80 0E   Length = 0 BitCount = 0 ID = 474
   5.584270 1  1db             Rx   d 8 00 20 FF EF 7F 00 02 F0   Length = 0 BitCount = 0 ID = 475
   5.584498 1  1dc             Rx   d 8 FF FF F1 93 E5 58 C6 43   Length = 0 BitCount = 0 ID = 476
   5.584749 1  59e             Rx   d 8 00 00 0F 3F F8 00 00 00   Length = 0 BitCount = 0 ID = 1438
   5.584994 1  5c0             Rx   d 8 00 FE FE 00 FF FC 1E 00   Length = 0 BitCount = 0 ID = 1472
   5.587584 1  1db             Rx   d 8 00 20 B9 2B 40 00 02 EB   Length = 0 BitCount = 0 ID = 475
   5.587833 1  1dc             Rx   d 8 6E 0A 05 D5 00 00 02 A4   Length = 0 BitCount = 0 ID = 476
   5.588054 1  1f2             Rx   d 8 30 A0 20 AC 00 3C 02 8F   Length = 0 BitCount = 0 ID = 498
   5.588252 1  50b             Rx   d 7 00 00 06 C0 00 00 00   Length = 0 BitCount = 0 ID = 1291
   5.588771 1  1da             Rx   d 8 B9 00 00 00 00 00 81 29   Length = 0 BitCount = 0 ID = 474
   5.592204 1  55b             Rx   d 8 A4 40 AA 00 DF C0 11 10   Length = 0 BitCount = 0 ID = 1371
   5.592457 1  59e             Rx   d 8 00 00 0C 76 18 00 00 00   Length = 0 BitCount = 0 ID = 1438
   5.592694 1  5bc             Rx   d 8 3D 80 F0 64 B0 01 00 32   Length = 0 BitCount = 0 ID = 1468
   5.592977 1  59e             Rx   d 8 00 00 0C 76 18 00 00 00   Length = 0 BitCount = 0 ID = 1438
   5.593171 1  55b             Rx   d 8 A4 40 AA 00 DF C0 11 10   Length = 0 BitCount = 0 ID = 1371
   5.593412 1  5bc             Rx   d 8 3D 80 F0 64 B0 01 00 32   Length = 0 BitCount = 0 ID = 1468
   5.594154 1  1db             Rx   d 8 00 20 FF EF 7F 00 03 75   Length = 0 BitCount = 0 ID = 475
   5.594391 1  1dc             Rx   d 8 FF FF F1 93 E8 C0 C3 D3   Length = 0 BitCount = 0 ID = 476
   5.597562 1  1db             Rx   d 8 00 20 B9 2B 40 00 03 6E   Length = 0 BitCount = 0 ID = 475
   5.597841 1  1dc             Rx   d 8 6E 0A 05 D5 00 00 03 21   Length = 0 BitCount = 0 ID = 476
   5.598081 1  1f2             Rx   d 8 30 A0 20 AC 00 3C 03 8F   Length = 0 BitCount = 0 ID = 498
   5.598302 1  50b             Rx   d 7 00 00 06 C0 00 00 00   Length = 0 BitCount = 0 ID = 1291
   5.598731 1  1da             Rx   d 8 B9 00 00 00 00 00 82 23   Length = 0 BitCount = 0 ID = 474
   5.604153 1  1db             Rx   d 8 00 20 FF EF 7F 00 00 7F   Length = 0 BitCount = 0 ID = 475
   5.604380 1  1dc             Rx   d 8 FF FF F1 93 EC C8 C8 AF   Length = 0 BitCount = 0 ID = 476
   5.607582 1  1db             Rx   d 8 00 20 B9 2B 40 00 00 64   Length = 0 BitCount = 0 ID = 475
   5.607830 1  1dc             Rx   d 8 6E 0A 05 D5 00 00 00 2B   Length = 0 BitCount = 0 ID = 476
   5.608078 1  1f2             Rx   d 8 30 A0 20 AC 00 3C 00 8F   Length = 0 BitCount = 0 ID = 498
   5.608281 1  50b             Rx   d 7 00 00 06 C0 00 00 00   Length = 0 BitCount = 0 ID = 1291
   5.608734 1  1da             Rx   d 8 B9 40 00 00 00 00 83 04   Length = 0 BitCount = 0 ID = 474
   5.609978 1  390             Rx   d 8 06 00 00 A2 00 88 00 CA   Length = 0 BitCount = 0 ID = 912
   5.610155 1  393             Rx   d 8 00 51 00 00 20 00 00 07   Length = 0 BitCount = 0 ID = 915
   5.614180 1  1db             Rx   d 8 00 00 FF EF 7F 00 01 AB   Length = 0 BitCount = 0 ID = 475
   5.614369 1  1dc             Rx   d 8 FF FF F1 93 E1 1C E5 A2   Length = 0 BitCount = 0 ID = 476
   5.617641 1  1db             Rx   d 8 00 00 B9 2B 40 00 01 B0   Length = 0 BitCount = 0 ID = 475
   5.617862 1  1dc             Rx   d 8 6E 0A 05 D5 00 00 01 AE   Length = 0 BitCount = 0 ID = 476
   5.618072 1  1f2             Rx   d 8 30 A0 20 AC 00 3C 01 8F   Length = 0 BitCount = 0 ID = 498
   5.618281 1  50b             Rx   d 7 00 00 06 C0 00 00 00   Length = 0 BitCount = 0 ID = 1291
   5.618789 1  1da             Rx   d 8 B9 40 00 00 00 00 80 0E   Length = 0 BitCount = 0 ID = 474
   5.624190 1  1db             Rx   d 8 00 00 FF EF 7F 00 02 A1   Length = 0 BitCount = 0 ID = 475
   5.624397 1  1dc             Rx   d 8 FF FF F1 93 E5 58 C6 43   Length = 0 BitCount = 0 ID = 476
   5.627614 1  1db             Rx   d 8 00 00 B9 2B 40 00 02 BA   Length = 0 BitCount = 0 ID = 475
   5.627845 1  1dc             Rx   d 8 6E 0A 05 D5 00 00 02 A4   Length = 0 BitCount = 0 ID = 476
   5.628059 1  1f2             Rx   d 8 30 A0 20 AC 00 3C 02 8F   Length = 0 BitCount = 0 ID = 498
   5.628292 1  50b             Rx   d 7 00 00 06 C0 00 00 00   Length = 0 BitCount = 0 ID = 1291
   5.628766 1  1da             Rx   d 8 B9 00 00 00 00 00 81 29   Length = 0 BitCount = 0 ID = 474
   5.634188 1  1db             Rx   d 8 00 20 FF EF 7F 00 03 75   Length = 0 BitCount = 0 ID = 475
   5.634377 1  1dc             Rx   d 8 FF FF F1 93 E8 C0 C3 D3   Length = 0 BitCount = 0 ID = 476
   5.637617 1  1db             Rx   d 8 00 20 B9 2B 40 00 03 6E   Length = 0 BitCount = 0 ID = 475
   5.637848 1  1dc             Rx   d 8 6E 0A 05 D5 00 00 03 21   Length = 0 BitCount = 0 ID = 476
   5.638082 1  1f2             Rx   d 8 30 A0 20 AC 00 3C 03 8F   Length = 0 BitCount = 0 ID = 498
   5.638294 1  50b             Rx   d 7 00 00 06 C0 00 00 00   Length = 0 BitCount = 0 ID = 1291
   5.638762 1  1da             Rx   d 8 B9 00 00 00 00 00 82 23   Length = 0 BitCount = 0 ID = 474
   5.644194 1  1db             Rx   d 8 00 20 FF EF 7F 00 00 7F   Length = 0 BitCount = 0 ID = 475
   5.644399 1  1dc             Rx   d 8 FF FF F1 93 EC C8 C8 AF   Length = 0 BitCount = 0 ID = 476
   5.647613 1  1db             Rx   d 8 00 20 B9 2B 40 00 00 64   Length = 0 BitCount = 0 ID = 475
   5.647813 1  1dc             Rx   d 8 6E 0A 05 D5 00 00 00 2B   Length = 0 BitCount = 0 ID = 476
   5.648031 1  1f2             Rx   d 8 30 A0 20 AC 00 3C 00 8F   Length = 0 BitCount = 0 ID = 498
   5.648228 1  50b             Rx   d 7 00 00 06 C0 00 00 00   Length = 0 BitCount = 0 ID = 1291
   5.648675 1  1da             Rx   d 8 B9 40 00 00 00 00 83 04   Length = 0 BitCount = 0 ID = 474
   5.654202 1  1db             Rx   d 8 00 20 FF EF 7F 00 01 FA   Length = 0 BitCount = 0 ID = 475
   5.654391 1  1dc             Rx   d 8 FF FF F1 93 E1 1C E5 A2   Length = 0 BitCount = 0 ID = 476
   5.657614 1  1db             Rx   d 8 00 20 B9 2B 40 00 01 E1   Length = 0 BitCount = 0 ID = 475
   5.657818 1  1dc             Rx   d 8 6E 0A 05 D5 00 00 01 AE   Length = 0 BitCount = 0 ID = 476
   5.658082 1  1f2             Rx   d 8 30 A0 20 AC 00 3C 01 8F   Length = 0 BitCount = 0 ID = 498
   5.658307 1  50b             Rx   d 7 00 00 06 C0 00 00 00   Length = 0 BitCount = 0 ID = 1291
   5.658767 1  1da             Rx   d 8 B9 40 00 00 00 00 80 0E   Length = 0 BitCount = 0 ID = 474
   5.664195 1  1db             Rx   d 8 00 20 FF EF 7F 00 02 F0   Length = 0 BitCount = 0 ID = 475
   5.664366 1  1dc             Rx   d 8 FF FF F1 93 E5 58 C6 43   Length = 0 BitCount = 0 ID = 476
   5.667618 1  1db             Rx   d 8 00 20 B9 2B 40 00 02 EB   Length = 0 BitCount = 0 ID = 475
   5.667847 1  1dc             Rx   d 8 6E 0A 05 D5 00 00 02 A4   Length = 0 BitCount = 0 ID = 476
   5.668040 1  1f2             Rx   d 8 30 A0 20 AC 00 3C 02 8F   Length = 0 BitCount = 0 ID = 498
   5.668281 1  50b             Rx   d 7 00 00 06 C0 00 00 00   Length = 0 BitCount = 0 ID = 1291
   5.668742 1  1da             Rx   d 8 B9 00 00 00 00 00 81 29   Length = 0 BitCount = 0 ID = 474
   5.668963 1  55a             Rx   d 8 00 3C 3B 00 5F 00 82 F0   Length = 0 BitCount = 0 ID = 1370
   5.674442 1  1db             Rx   d 8 00 20 FF EF 7F 00 03 75   Length = 0 BitCount = 0 ID = 475
   5.674580 1  1dc             Rx   d 8 FF FF F1 93 E8 C0 C3 D3   Length = 0 BitCount = 0 ID = 476
   5.674843 1  55b             Rx   d 8 A5 00 AA 00 FF C0 11 14   Length = 0 BitCount = 0 ID = 1371
   5.675094 1  5bc             Rx   d 8 5D C0 FF 64 A4 11 7F FF   Length = 0 BitCount = 0 ID = 1468
   5.677646 1  1db             Rx   d 8 00 20 B9 2B 40 00 03 6E   Length = 0 BitCount = 0 ID = 475
   5.677860 1  1dc             Rx   d 8 6E 0A 05 D5 00 00 03 21   Length = 0 BitCount = 0 ID = 476
   5.678061 1  1f2             Rx   d 8 30 A0 20 AC 00 3C 03 8F   Length = 0 BitCount = 0 ID = 498
   5.678271 1  50b             Rx   d 7 00 00 06 C0 00 00 00   Length = 0 BitCount = 0 ID = 1291
   5.678764 1  1da             Rx   d 8 B9 00 00 00 00 00 82 23   Length = 0 BitCount = 0 ID = 474
   5.684122 1  1db             Rx   d 8 00 20 FF EF 7F 00 00 7F   Length = 0 BitCount = 0 ID = 475
   5.684350 1  1dc             Rx   d 8 FF FF F1 93 EC C8 C8 AF   Length = 0 BitCount = 0 ID = 476
   5.687533 1  1db             Rx   d 8 00 20 B9 2B 40 00 00 64   Length = 0 BitCount = 0 ID = 475
   5.687837 1  1dc             Rx   d 8 6E 0A 05 D5 00 00 00 2B   Length = 0 BitCount = 0 ID = 476
   5.688082 1  1f2             Rx   d 8 30 A0 20 AC 00 3C 00 8F   Length = 0 BitCount = 0 ID = 498
   5.688305 1  50b             Rx   d 7 00 00 06 C0 00 00 00   Length = 0 BitCount = 0 ID = 1291
   5.688765 1  1da             Rx   d 8 B9 40 00 00 00 00 83 04   Length = 0 BitCount = 0 ID = 474
   5.692208 1  55b             Rx   d 8 A4 40 AA 00 DF C0 12 1A   Length = 0 BitCount = 0 ID = 1371
   5.692469 1  59e             Rx   d 8 00 00 0C 76 18 00 00 00   Length = 0 BitCount = 0 ID = 1438
   5.692686 1  5bc             Rx   d 8 3D 80 F0 64 B0 01 00 32   Length = 0 BitCount = 0 ID = 1468
   5.692964 1  59e             Rx   d 8 00 00 0C 76 18 00 00 00   Length = 0 BitCount = 0 ID = 1438
   5.693185 1  55b             Rx   d 8 A4 40 AA 00 DF C0 12 1A   Length = 0 BitCount = 0 ID = 1371
   5.693394 1  5bc             Rx   d 8 3D 80 F0 64 B0 01 00 32   Length = 0 BitCount = 0 ID = 1468
   5.694156 1  1db             Rx   d 8 00 20 B9 AF 7F 00 01 14   Length = 0 BitCount = 0 ID = 475
   5.694384 1  1dc             Rx   d 8 FF FF F1 93 E1 1C E5 A2   Length = 0 BitCount = 0 ID = 476
   5.697579 1  1db             Rx   d 8 00 20 B9 2B 40 00 01 E1   Length = 0 BitCount = 0 ID = 475
   5.697857 1  1dc             Rx   d 8 6E 0A 05 D5 00 00 01 AE   Length = 0 BitCount = 0 ID = 476
   5.698072 1  1f2             Rx   d 8 30 A0 20 AC 00 3C 01 8F   Length = 0 BitCount = 0 ID = 498
   5.698284 1  50b             Rx   d 7 00 00 06 C0 00 00 00   Length = 0 BitCount = 0 ID = 1291
   5.698710 1  1da             Rx   d 8 B9 40 00 00 00 00 80 0E   Length = 0 BitCount = 0 ID = 474
   5.704164 1  1db             Rx   d 8 00 00 B9 AF 7F 00 02 4F   Length = 0 BitCount = 0 ID = 475
   5.704387 1  1dc             Rx   d 8 FF FF F1 93 E5 58 C6 43   Length = 0 BitCount = 0 ID = 476
   5.707602 1  1db             Rx   d 8 00 00 B9 2B 40 00 02 BA   Length = 0 BitCount = 0 ID = 475
   5.707850 1  1dc             Rx   d 8 6E 0A 05 D5 00 00 02 A4   Length = 0 BitCount = 0 ID = 476
   5.708071 1  1f2             Rx   d 8 30 A0 20 AC 00 3C 02 8F   Length = 0 BitCount = 0 ID = 498
   5.708297 1  50b             Rx   d 7 00 00 06 C0 00 00 00   Length = 0 BitCount = 0 ID = 1291
   5.708724 1  1da             Rx   d 8 B9 00 00 00 00 00 81 29   Length = 0 BitCount = 0 ID = 474
   5.710047 1  390             Rx   d 8 04 00 00 A2 00 88 00 D9   Length = 0 BitCount = 0 ID = 912
   5.710273 1  393             Rx   d 8 00 51 00 00 20 00 00 18   Length = 0 BitCount = 0 ID = 915
   5.714151 1  1db             Rx   d 8 00 00 B9 AF 7F 00 03 CA   Length = 0 BitCount = 0 ID = 475
   5.714403 1  1dc             Rx   d 8 FF FF F1 93 E8 C0 C3 D3   Length = 0 BitCount = 0 ID = 476
   5.717627 1  1db             Rx   d 8 00 00 B9 2B 40 00 03 3F   Length = 0 BitCount = 0 ID = 475
   5.717854 1  1dc             Rx   d 8 6E 0A 05 D5 00 00 03 21   Length = 0 BitCount = 0 ID = 476
   5.718100 1  1f2             Rx   d 8 30 A0 20 AC 00 3C 03 8F   Length = 0 BitCount = 0 ID = 498
   5.718363 1  50b             Rx   d 7 00 00 06 C0 00 00 00   Length = 0 BitCount = 0 ID = 1291
   5.718778 1  1da             Rx   d 8 B9 00 00 00 00 00 82 23   Length = 0 BitCount = 0 ID = 474
   5.724146 1  1db             Rx   d 8 00 00 B9 AF 7F 00 00 C0   Length = 0 BitCount = 0 ID = 475
   5.724398 1  1dc             Rx   d 8 FF FF F1 93 EC C8 C8 AF   Length = 0 BitCount = 0 ID = 476
   5.727664 1  1db             Rx   d 8 00 00 B9 2B 40 00 00 35   Length = 0 BitCount = 0 ID = 475
   5.727868 1  1dc             Rx   d 8 6E 0A 05 D5 00 00 00 2B   Length = 0 BitCount = 0 ID = 476
   5.728109 1  1f2             Rx   d 8 30 A0 20 AC 00 3C 00 8F   Length = 0 BitCount = 0 ID = 498
   5.728304 1  50b             Rx   d 7 00 00 06 C0 00 00 00   Length = 0 BitCount = 0 ID = 1291
   5.728778 1  1da             Rx   d 8 B9 40 00 00 00 00 83 04   Length = 0 BitCount = 0 ID = 474
   5.734230 1  1db             Rx   d 8 FF E0 B9 AF 7F 00 01 05   Length = 0 BitCount = 0 ID = 475
   5.734387 1  1dc             Rx   d 8 FF FF F1 93 E1 1C E5 A2   Length = 0 BitCount = 0 ID = 476
   5.737693 1  1db             Rx   d 8 FF E0 B9 2B 40 00 01 F0   Length = 0 BitCount = 0 ID = 475
   5.737865 1  1dc             Rx   d 8 6E 0A 05 D5 00 00 01 AE   Length = 0 BitCount = 0 ID = 476
   5.738046 1  1f2             Rx   d 8 30 A0 20 AC 00 3C 01 8F   Length = 0 BitCount = 0 ID = 498
   5.738274 1  50b             Rx   d 7 00 00 06 C0 00 00 00   Length = 0 BitCount = 0 ID = 1291
   5.738795 1  1da             Rx   d 8 B9 40 00 00 00 00 80 0E   Length = 0 BitCount = 0 ID = 474
   5.744183 1  1db             Rx   d 8 FF E0 B9 AF 7F 00 02 0F   Length = 0 BitCount = 0 ID = 475
   5.744415 1  1dc             Rx   d 8 FF FF F1 93 E5 58 C6 43   Length = 0 BitCount = 0 ID = 476
   5.747641 1  1db             Rx   d 8 FF E0 B9 2B 40 00 02 FA   Length = 0 BitCount = 0 ID = 475
   5.747855 1  1dc             Rx   d 8 6E 0A 05 D5 00 00 02 A4   Length = 0 BitCount = 0 ID = 476
   5.748088 1  1f2             Rx   d 8 30 A0 20 AC 00 3C 02 8F   Length = 0 BitCount = 0 ID = 498
   5.748275 1  50b             Rx   d 7 00 00 06 C0 00 00 00   Length = 0 BitCount = 0 ID = 1291
   5.748755 1  1da             Rx   d 8 B9 00 00 00 00 00 81 29   Length = 0 BitCount = 0 ID = 474
   5.754239 1  1db             Rx   d 8 FF C0 B9 AF 7F 00 03 DB   Length = 0 BitCount = 0 ID = 475
   5.754375 1  1dc             Rx   d 8 FF FF F1 93 E8 C0 C3 D3   Length = 0 BitCount = 0 ID = 476
   5.757684 1  1db             Rx   d 8 FF C0 B9 2B 40 00 03 2E   Length = 0 BitCount = 0 ID = 475
   5.757856 1  1dc             Rx   d 8 6E 0A 05 D5 00 00 03 21   Length = 0 BitCount = 0 ID = 476
   5.758088 1  1f2             Rx   d 8 30 A0 20 AC 00 3C 03 8F   Length = 0 BitCount = 0 ID = 498
   5.758308 1  50b             Rx   d 7 00 00 06 C0 00 00 00   Length = 0 BitCount = 0 ID = 1291
   5.758720 1  1da             Rx   d 8 B9 00 00 00 00 00 82 23   Length = 0 BitCount = 0 ID = 474
   5.764187 1  1db             Rx   d 8 FF C0 B9 AF 7F 00 00 D1   Length = 0 BitCount = 0 ID = 475
   5.764418 1  1dc             Rx   d 8 FF FF F1 93 EC C8 C8 AF   Length = 0 BitCount = 0 ID = 476
   5.767631 1  1db             Rx   d 8 FF C0 B9 2B 40 00 00 24   Length = 0 BitCount = 0 ID = 475
   5.767871 1  1dc             Rx   d 8 6E 0A 05 D5 00 00 00 2B   Length = 0 BitCount = 0 ID = 476
   5.768092 1  1f2             Rx   d 8 30 A0 20 AC 00 3C 00 8F   Length = 0 BitCount = 0 ID = 498
   5.768304 1  50b             Rx   d 7 00 00 06 C0 00 00 00   Length = 0 BitCount = 0 ID = 1291
   5.768763 1  1da             Rx   d 8 B9 40 00 00 00 00 83 04   Length = 0 BitCount = 0 ID = 474
   5.769003 1  55a             Rx   d 8 00 3C 3B 00 5F 00 83 50   Length = 0 BitCount = 0 ID = 1370
   5.774409 1  1db             Rx   d 8 FF C0 B9 AF 7F 00 01 54   Length = 0 BitCount = 0 ID = 475
   5.774567 1  1dc             Rx   d 8 FF FF F1 93 E1 1C E5 A2   Length = 0 BitCount = 0 ID = 476
   5.774858 1  55b             Rx   d 8 A5 00 AA 00 FF C0 12 1E   Length = 0 BitCount = 0 ID = 1371
   5.775091 1  5bc             Rx   d 8 FF C0 FF 64 A4 02 5F FF   Length = 0 BitCount = 0 ID = 1468
   5.777620 1  1db             Rx   d 8 FF C0 B9 2B 40 00 01 A1   Length = 0 BitCount = 0 ID = 475
   5.777835 1  1dc             Rx   d 8 6E 0A 05 D5 00 00 01 AE   Length = 0 BitCount = 0 ID = 476
   5.778066 1  1f2             Rx   d 8 30 A0 20 AC 00 3C 01 8F   Length = 0 BitCount = 0 ID = 498
   5.778297 1  50b             Rx   d 7 00 00 06 C0 00 00 00   Length = 0 BitCount = 0 ID = 1291
   5.778698 1  1da             Rx   d 8 B9 40 00 00 00 00 80 0E   Length = 0 BitCount = 0 ID = 474
   5.784156 1  1db             Rx   d 8 FF C0 B9 AB 40 00 02 12   Length = 0 BitCount = 0 ID = 475
   5.784357 1  1dc             Rx   d 8 6E 0A 51 91 E5 58 C6 37   Length = 0 BitCount = 0 ID = 476
   5.787581 1  1db             Rx   d 8 FF C0 B9 2B 40 00 02 AB   Length = 0 BitCount = 0 ID = 475
   5.787832 1  1dc             Rx   d 8 6E 0A 05 D5 00 00 02 A4   Length = 0 BitCount = 0 ID = 476
   5.788055 1  1f2             Rx   d 8 30 A0 20 AC 00 3C 02 8F   Length = 0 BitCount = 0 ID = 498
   5.788282 1  50b             Rx   d 7 00 00 06 C0 00 00 00   Length = 0 BitCount = 0 ID = 1291
   5.788684 1  1da             Rx   d 8 B9 00 00 00 00 00 81 29   Length = 0 BitCount = 0 ID = 474
   5.792208 1  55b             Rx   d 8 A4 40 AA 00 DF C0 13 9F   Length = 0 BitCount = 0 ID = 1371
   5.792458 1  59e             Rx   d 8 00 00 0C 76 18 00 00 00   Length = 0 BitCount = 0 ID = 1438
   5.792688 1  5bc             Rx   d 8 3D 80 F0 64 B0 01 00 32   Length = 0 BitCount = 0 ID = 1468
   5.792980 1  59e             Rx   d 8 00 00 0C 76 18 00 00 00   Length = 0 BitCount = 0 ID = 1438
   5.793158 1  55b             Rx   d 8 A4 40 AA 00 DF C0 13 9F   Length = 0 BitCount = 0 ID = 1371
   5.793410 1  5bc             Rx   d 8 3D 80 F0 64 B0 01 00 32   Length = 0 BitCount = 0 ID = 1468
   5.794132 1  1db             Rx   d 8 FF A0 B9 AB 40 00 03 64   Length = 0 BitCount = 0 ID = 475
